! Example Packaged FET S-Parameter file 2-port
! AWR Design Environment (4980) 
! Ports: 2, Freqs: 103
# GHz S DB R 50
!-----------------------------------------------------------------------------
!Freq          DBS11       AngS11        DBS21       AngS21        DBS12       AngS12        DBS22       AngS22
 0.01        -4.904e-5    -0.097704    -74.093       89.755      -74.093       89.755      -6.2719       179.85      
 0.1         -0.00039969  -0.97704     -54.094       89.297      -54.094       89.297      -6.271        178.55      
 0.25        -0.002259    -2.4426      -46.137       88.279      -46.137       88.279      -6.266        176.38      
 0.5         -0.0088967   -4.8853      -40.122       86.569      -40.122       86.569      -6.2483       172.76      
 1           -0.035405    -9.7711      -34.126       83.15       -34.126       83.15       -6.1784       165.6       
 1.5         -0.079435    -14.658      -30.645       79.744      -30.645       79.744      -6.066        158.59      
 2           -0.14076     -19.547      -28.203       76.36       -28.203       76.36       -5.9165       151.78      
 2.5         -0.21906     -24.439      -26.336       73.002      -26.336       73.002      -5.7362       145.24      
 3           -0.31391     -29.334      -24.839       69.679      -24.839       69.679      -5.5324       138.98      
 3.5         -0.42482     -34.233      -23.602       66.394      -23.602       66.394      -5.3118       133.03      
 4           -0.55118     -39.139      -22.557       63.154      -22.557       63.154      -5.0807       127.41      
 4.5         -0.69226     -44.052      -21.662       59.963      -21.662       59.963      -4.8447       122.09      
 5           -0.84727     -48.974      -20.887       56.824      -20.887       56.824      -4.608        117.09      
 5.5         -1.0153      -53.907      -20.212       53.742      -20.212       53.742      -4.3745       112.39      
 6           -1.1953      -58.853      -19.619       50.719      -19.619       50.719      -4.1467       107.97      
 6.5         -1.3861      -63.814      -19.097       47.757      -19.097       47.757      -3.9266       103.81      
 7           -1.5864      -68.792      -18.636       44.858      -18.636       44.858      -3.7155       99.906      
 7.5         -1.795       -73.79       -18.228       42.024      -18.228       42.024      -3.5143       96.235      
 8           -2.0102      -78.808      -17.867       39.255      -17.867       39.255      -3.3234       92.782      
 8.5         -2.2304      -83.85       -17.548       36.552      -17.548       36.552      -3.143        89.531      
 9           -2.454       -88.915      -17.265       33.916      -17.265       33.916      -2.9729       86.468      
 9.5         -2.679       -94.006      -17.015       31.346      -17.015       31.346      -2.813        83.58       
 10          -2.9035      -99.121      -16.795       28.842      -16.795       28.842      -2.6628       80.854      
 10.5        -3.1255      -104.26      -16.601       26.404      -16.601       26.404      -2.5219       78.279      
 11          -3.3429      -109.42      -16.431       24.031      -16.431       24.031      -2.39         75.843      
 11.5        -3.5537      -114.6       -16.284       21.723      -16.284       21.723      -2.2663       73.538      
 12          -3.7558      -119.79      -16.156       19.478      -16.156       19.478      -2.1506       71.353      
 12.5        -3.9472      -124.99      -16.046       17.295      -16.046       17.295      -2.0422       69.282      
 13          -4.126       -130.19      -15.952       15.173      -15.952       15.173      -1.9407       67.315      
 13.5        -4.2905      -135.37      -15.874       13.112      -15.874       13.112      -1.8457       65.447      
 14          -4.4394      -140.54      -15.809       11.109      -15.809       11.109      -1.7566       63.67       
 14.5        -4.5714      -145.67      -15.757       9.1637      -15.757       9.1637      -1.6731       61.978      
 15          -4.6856      -150.75      -15.716       7.2742      -15.716       7.2742      -1.5948       60.367      
 15.5        -4.7816      -155.78      -15.686       5.4393      -15.686       5.4393      -1.5213       58.83       
 16          -4.8591      -160.73      -15.665       3.6575      -15.665       3.6575      -1.4522       57.363      
 16.5        -4.9183      -165.6       -15.653       1.9273      -15.653       1.9273      -1.3874       55.963      
 17          -4.9597      -170.37      -15.649       0.24736     -15.649       0.24736     -1.3264       54.624      
 17.5        -4.984       -175.04      -15.653      -1.3838      -15.653      -1.3838      -1.2689       53.343      
 18          -4.9921      -179.58      -15.663      -2.9677      -15.663      -2.9677      -1.2149       52.117      
 18.5        -4.9853       175.99      -15.679      -4.5057      -15.679      -4.5057      -1.1639       50.942      
 19          -4.9648       171.69      -15.701      -5.9992      -15.701      -5.9992      -1.1158       49.815      
 19.5        -4.9319       167.53      -15.729      -7.4496      -15.729      -7.4496      -1.0704       48.735      
 20          -4.8881       163.5       -15.761      -8.8583      -15.761      -8.8583      -1.0275       47.697      
 20.5        -4.8348       159.61      -15.797      -10.227      -15.797      -10.227      -0.98698      46.7        
 21          -4.7732       155.86      -15.837      -11.556      -15.837      -11.556      -0.94862      45.741      
 21.5        -4.7046       152.24      -15.881      -12.847      -15.881      -12.847      -0.9123       44.819      
 22          -4.6303       148.76      -15.929      -14.102      -15.929      -14.102      -0.87789      43.931      
 22.5        -4.5513       145.41      -15.979      -15.322      -15.979      -15.322      -0.84526      43.076      
 23          -4.4685       142.19      -16.032      -16.507      -16.032      -16.507      -0.81429      42.252      
 23.5        -4.3829       139.09      -16.088      -17.66       -16.088      -17.66       -0.78489      41.458      
 24          -4.2952       136.1       -16.146      -18.78       -16.146      -18.78       -0.75695      40.691      
 24.5        -4.2061       133.24      -16.206      -19.87       -16.206      -19.87       -0.73038      39.95       
 25          -4.1163       130.48      -16.267      -20.93       -16.267      -20.93       -0.7051       39.235      
 25.5        -4.0261       127.83      -16.331      -21.961      -16.331      -21.961      -0.68102      38.544      
 26          -3.9362       125.27      -16.396      -22.964      -16.396      -22.964      -0.65809      37.876      
 26.5        -3.8467       122.82      -16.462      -23.941      -16.462      -23.941      -0.63622      37.23       
 27          -3.7581       120.45      -16.53       -24.891      -16.53       -24.891      -0.61537      36.604      
 27.5        -3.6706       118.17      -16.599      -25.816      -16.599      -25.816      -0.59546      35.999      
 28          -3.5844       115.98      -16.669      -26.718      -16.669      -26.718      -0.57644      35.412      
 28.5        -3.4997       113.86      -16.74       -27.596      -16.74       -27.596      -0.55827      34.843      
 29          -3.4165       111.82      -16.811      -28.451      -16.811      -28.451      -0.54089      34.292      
 29.5        -3.3351       109.85      -16.883      -29.284      -16.883      -29.284      -0.52427      33.757      
 30          -3.2555       107.95      -16.956      -30.096      -16.956      -30.096      -0.50836      33.238      
 30.5        -3.1777       106.11      -17.029      -30.888      -17.029      -30.888      -0.49311      32.734      
 31          -3.1017       104.34      -17.103      -31.66       -17.103      -31.66       -0.47851      32.244      
 31.5        -3.0277       102.62      -17.177      -32.413      -17.177      -32.413      -0.46451      31.769      
 32          -2.9556       100.96      -17.252      -33.147      -17.252      -33.147      -0.45107      31.307      
 32.5        -2.8854       99.35       -17.327      -33.864      -17.327      -33.864      -0.43818      30.857      
 33          -2.8171       97.794      -17.401      -34.563      -17.401      -34.563      -0.4258       30.421      
 33.5        -2.7507       96.285      -17.477      -35.246      -17.477      -35.246      -0.41391      29.995      
 34          -2.6861       94.824      -17.552      -35.912      -17.552      -35.912      -0.40249      29.582      
 34.5        -2.6233       93.406      -17.627      -36.563      -17.627      -36.563      -0.3915       29.179      
 35          -2.5623       92.031      -17.702      -37.198      -17.702      -37.198      -0.38093      28.786      
 35.5        -2.5031       90.696      -17.777      -37.819      -17.777      -37.819      -0.37076      28.404      
 36          -2.4456       89.399      -17.853      -38.426      -17.853      -38.426      -0.36097      28.031      
 36.5        -2.3897       88.14       -17.928      -39.019      -17.928      -39.019      -0.35154      27.668      
 37          -2.3354       86.916      -18.003      -39.598      -18.003      -39.598      -0.34245      27.314      
 37.5        -2.2828       85.726      -18.078      -40.165      -18.078      -40.165      -0.33369      26.969      
 38          -2.2316       84.569      -18.152      -40.719      -18.152      -40.719      -0.32524      26.632      
 38.5        -2.182        83.443      -18.227      -41.261      -18.227      -41.261      -0.31709      26.303      
 39          -2.1338       82.347      -18.301      -41.791      -18.301      -41.791      -0.30923      25.981      
 39.5        -2.087        81.279      -18.375      -42.309      -18.375      -42.309      -0.30164      25.668      
 40          -2.0415       80.24       -18.449      -42.817      -18.449      -42.817      -0.29431      25.362      
 40.5        -1.9974       79.227      -18.523      -43.313      -18.523      -43.313      -0.28723      25.062      
 41          -1.9545       78.239      -18.596      -43.8        -18.596      -43.8        -0.28038      24.77       
 41.5        -1.9129       77.276      -18.67       -44.276      -18.67       -44.276      -0.27377      24.484      
 42          -1.8725       76.337      -18.742      -44.742      -18.742      -44.742      -0.26737      24.204      
 42.5        -1.8332       75.42       -18.815      -45.199      -18.815      -45.199      -0.26118      23.931      
 43          -1.795        74.526      -18.887      -45.647      -18.887      -45.647      -0.25519      23.664      
 43.5        -1.7579       73.652      -18.959      -46.085      -18.959      -46.085      -0.24939      23.402      
 44          -1.7219       72.799      -19.031      -46.515      -19.031      -46.515      -0.24377      23.146      
 44.5        -1.6869       71.966      -19.102      -46.936      -19.102      -46.936      -0.23833      22.896      
 45          -1.6528       71.152      -19.173      -47.349      -19.173      -47.349      -0.23307      22.65       
 45.5        -1.6197       70.356      -19.243      -47.754      -19.243      -47.754      -0.22796      22.41       
 46          -1.5875       69.578      -19.314      -48.151      -19.314      -48.151      -0.22301      22.175      
 46.5        -1.5562       68.817      -19.384      -48.541      -19.384      -48.541      -0.21821      21.944      
 47          -1.5258       68.073      -19.453      -48.923      -19.453      -48.923      -0.21355      21.718      
 47.5        -1.4961       67.345      -19.522      -49.298      -19.522      -49.298      -0.20903      21.497      
 48          -1.4673       66.632      -19.591      -49.666      -19.591      -49.666      -0.20465      21.28       
 48.5        -1.4392       65.935      -19.659      -50.027      -19.659      -50.027      -0.20039      21.067      
 49          -1.4119       65.252      -19.728      -50.382      -19.728      -50.382      -0.19626      20.859      
 49.5        -1.3853       64.583      -19.795      -50.73       -19.795      -50.73       -0.19225      20.654      
 50          -1.3594       63.927      -19.863      -51.072      -19.863      -51.072      -0.18835      20.453      

!Noise Parameters
!Freq  NFmin(dB)  Mag(GammaOpt)  Ang(GammaOpt)(deg)  rn(normalized by ref. impedance)
 0.01         18.442       0.99999      0.097704     6.1486e6    
 0.1          8.2858       0.99995      0.97703      61480       
 0.25         7.9661       0.99969      2.4425       9831.6      
 0.5          7.9161       0.99879      4.8847       2453.2      
 1            7.8917       0.99517      9.7665       608.65      
 1.5          7.8687       0.98918      14.643       267.1       
 2            7.8391       0.98089      19.51        147.61      
 2.5          7.8021       0.97039      24.367       92.357      
 3            7.7579       0.95778      29.21        62.397      
 3.5          7.7067       0.94319      34.038       44.386      
 4            7.6489       0.92678      38.85        32.75       
 4.5          7.5851       0.9087       43.642       24.824      
 5            7.5156       0.88913      48.416       19.204      
 5.5          7.441        0.86825      53.17        15.093      
 6            7.3619       0.84625      57.905       12.01       
 6.5          7.2788       0.82332      62.621       9.6526      
 7            7.1921       0.79966      67.32        7.8202      
 7.5          7.1025       0.77545      72.003       6.3774      
 8            7.0102       0.75088      76.673       5.2292      
 8.5          6.916        0.72612      81.333       4.3075      
 9            6.82         0.70134      85.987       3.5625      
 9.5          6.7229       0.67671      90.638       2.9567      
 10           6.6248       0.65238      95.292       2.4621      
 10.5         6.5263       0.62848      99.951       2.0569      
 11           6.4275       0.60515      104.62       1.7241      
 11.5         6.3288       0.58249      109.31       1.4504      
 12           6.2304       0.56063      114.02       1.2251      
 12.5         6.1325       0.53965      118.75       1.0399      
 13           6.0354       0.51964      123.51       0.88771     
 13.5         5.9391       0.50068      128.3        0.76303     
 14           5.844        0.48284      133.12       0.66126     
 14.5         5.75         0.46616      137.98       0.57862     
 15           5.6572       0.4507       142.86       0.51199     
 15.5         5.5659       0.43649      147.77       0.4588      
 16           5.476        0.42355      152.7        0.41687     
 16.5         5.3877       0.4119       157.64       0.38442     
 17           5.3009       0.40154      162.58       0.35993     
 17.5         5.2157       0.39246      167.51       0.34212     
 18           5.1321       0.38464      172.42       0.32994     
 18.5         5.0501       0.37805      177.28       0.32246     
 19           4.9699       0.37265     -177.91       0.31894     
 19.5         4.8912       0.36838     -173.18       0.31872     
 20           4.8143       0.36519     -168.53       0.32125     
 20.5         4.7389       0.36301     -163.98       0.32607     
 21           4.6652       0.36178     -159.55       0.33278     
 21.5         4.5931       0.36141     -155.25       0.34105     
 22           4.5226       0.36184     -151.07       0.35059     
 22.5         4.4537       0.36298     -147.04       0.36114     
 23           4.3863       0.36478     -143.15       0.37252     
 23.5         4.3205       0.36715     -139.41       0.38453     
 24           4.2561       0.37002     -135.81       0.39704     
 24.5         4.1932       0.37335     -132.36       0.4099      
 25           4.1317       0.37706     -129.04       0.42302     
 25.5         4.0716       0.38111     -125.87       0.4363      
 26           4.0129       0.38544     -122.83       0.44967     
 26.5         3.9555       0.39001     -119.93       0.46305     
 27           3.8995       0.39479     -117.14       0.4764      
 27.5         3.8447       0.39973     -114.48       0.48967     
 28           3.7911       0.4048      -111.93       0.50281     
 28.5         3.7388       0.40998     -109.48       0.51581     
 29           3.6876       0.41524     -107.14       0.52862     
 29.5         3.6376       0.42056     -104.9        0.54124     
 30           3.5888       0.42592     -102.75       0.55364     
 30.5         3.541        0.4313      -100.68       0.56581     
 31           3.4942       0.43669     -98.703       0.57774     
 31.5         3.4485       0.44207     -96.8         0.58942     
 32           3.4038       0.44744     -94.971       0.60084     
 32.5         3.3601       0.45279     -93.212       0.61201     
 33           3.3174       0.4581      -91.519       0.62291     
 33.5         3.2755       0.46337     -89.888       0.63356     
 34           3.2346       0.4686      -88.317       0.64395     
 34.5         3.1945       0.47377     -86.802       0.65407     
 35           3.1553       0.47889     -85.34        0.66394     
 35.5         3.117        0.48396     -83.928       0.67356     
 36           3.0794       0.48896     -82.565       0.68292     
 36.5         3.0426       0.4939      -81.247       0.69204     
 37           3.0066       0.49878     -79.972       0.70091     
 37.5         2.9713       0.50359     -78.739       0.70955     
 38           2.9368       0.50833     -77.544       0.71796     
 38.5         2.9029       0.513       -76.387       0.72613     
 39           2.8697       0.51761     -75.266       0.73408     
 39.5         2.8372       0.52215     -74.178       0.74182     
 40           2.8054       0.52661     -73.122       0.74934     
 40.5         2.7742       0.53102     -72.098       0.75666     
 41           2.7436       0.53535     -71.103       0.76377     
 41.5         2.7136       0.53961     -70.136       0.77069     
 42           2.6841       0.54381     -69.196       0.77741     
 42.5         2.6553       0.54795     -68.281       0.78395     
 43           2.627        0.55201     -67.392       0.79031     
 43.5         2.5992       0.55602     -66.526       0.79649     
 44           2.572        0.55996     -65.683       0.8025      
 44.5         2.5452       0.56383     -64.862       0.80834     
 45           2.519        0.56765     -64.062       0.81402     
 45.5         2.4933       0.5714      -63.282       0.81955     
 46           2.468        0.5751      -62.521       0.82492     
 46.5         2.4432       0.57873     -61.779       0.83014     
 47           2.4188       0.58231     -61.055       0.83522     
 47.5         2.3949       0.58583     -60.349       0.84016     
 48           2.3714       0.58929     -59.658       0.84496     
 48.5         2.3483       0.5927      -58.984       0.84963     
 49           2.3256       0.59606     -58.326       0.85418     
 49.5         2.3033       0.59936     -57.682       0.8586      
 50           2.2814       0.60262     -57.053       0.8629      
