! MARKI MICROWAVE INC.
! Email:             	info@markimicrowave.com   				Phone:   408-778-4200
! Model Number:      	QH-0R714						Date:    09/14
! Filename:		QH_0R714.S4P						Version: 1.0
! Description:       	4-port S-parameter data for Quadrature Hybrid Coupler QH-0R714
! Frequency Range: 	10 MHz to 15 GHz		
! Port Configuration:	PORT 1: Input 
!			PORT 2: Isolated 
!			Port 3: Through	
!			Port 4: 90 Degree Coupled

! S4P File: Measurements: Mag<S11> Ang<S11> Mag<S12> Ang<S12> Mag<S13> Ang<S13> Mag<S14> Ang<S14>! row 1 
!			  Mag<S21> Ang<S21> Mag<S22> Ang<S22> Mag<S23> Ang<S23> Mag<S24> Ang<S24>! row 2 
!			  Mag<S31> Ang<S31> Mag<S32> Ang<S32> Mag<S33> Ang<S33> Mag<S34> Ang<S34>! row 3 
!			  Mag<S41> Ang<S41> Mag<S42> Ang<S42> Mag<S43> Ang<S43> Mag<S44> Ang<S44>! row 4
# Hz S  dB   R 50

10000000 -36.692196 -18.342731 -63.122921 -89.193123 -0.037885699 -16.424168 -30.589046 74.87764
-60.646137 -64.416344 -36.487148 -26.506145 -30.625977 74.229263 -0.030719385 -16.456409
-0.061822571 -15.394108 -30.42634 75.079079 -38.74369 -29.398102 -64.003433 -58.384777
-30.536701 75.817665 -0.043515526 -15.001674 -59.545727 -77.857704 -37.807774 -31.821407
28737500 -37.231812 -10.455894 -61.811169 -103.92282 -0.050745379 -21.744713 -28.335705 69.30056
-59.926182 -83.940857 -36.773743 -15.168655 -28.366859 68.826653 -0.043681778 -21.749399
-0.072199799 -20.902399 -28.210535 69.530167 -38.978756 -18.191587 -62.634315 -77.899033
-28.296124 70.066803 -0.058117025 -20.584949 -59.033867 -93.658203 -38.004627 -19.75812
47475000 -37.691856 -1.8459681 -60.374985 -121.70577 -0.068421409 -28.142748 -25.92798 62.636143
-59.036762 -106.09595 -36.921997 -5.6517854 -25.951864 62.346657 -0.061507989 -28.12196
-0.087440565 -27.484842 -25.838491 62.909439 -39.112114 -8.9219007 -61.195423 -100.70476
-25.90003 63.241707 -0.077296942 -27.239862 -58.438595 -112.59615 -38.071079 -8.2322149
66212500 -38.039314 5.0207438 -58.874203 -141.9151 -0.091137998 -35.617733 -23.387758 54.902882
-58.064049 -130.94075 -37.102943 3.4188824 -23.40513 54.794865 -0.0842852 -35.565567
-0.10769785 -35.135761 -23.334696 55.219749 -39.292385 -0.32025182 -59.818359 -125.47321
-23.37219 55.346371 -0.10170186 -34.963406 -57.943668 -133.47646 -38.170475 1.5952905
84950000 -38.511787 11.651883 -57.356155 -163.8304 -0.11945875 -44.158428 -20.73321 46.098644
-57.034222 -157.44099 -37.208305 11.218544 -20.744272 46.177261 -0.11311176 -44.077431
-0.13388623 -43.8503 -20.71636 46.467129 -39.379311 7.2863579 -58.31147 -152.12564
-20.729502 46.381126 -0.13140787 -43.757984 -57.292561 -156.4019 -38.255505 10.652266
103687500 -38.914925 17.251514 -55.867832 171.88654 -0.15420046 -53.768806 -17.977526 36.223122
-56.0578 173.79166 -37.432575 17.78677 -17.982801 36.492435 -0.14748798 -53.657906
-0.16618839 -53.631641 -17.997221 36.648438 -39.588669 13.567847 -56.880547 177.92267
-17.986994 36.34586 -0.16773087 -53.619843 -56.705185 177.69389 -38.238171 18.545908
122425000 -38.892128 7.7262001 -54.944263 157.42926 -0.1960139 -63.459198 -16.158533 26.521906
-55.002357 157.12888 -37.263725 8.7441559 -16.165585 26.803377 -0.18914589 -63.335827
-0.20719001 -63.24646 -16.178793 26.994097 -39.311409 5.7681293 -55.732719 161.87022
-16.168724 26.68548 -0.20829606 -63.241905 -55.494373 161.1866 -37.73608 10.462037
141162500 -38.849178 5.5192604 -53.718136 135.44009 -0.24237677 -73.128922 -14.742894 16.817808
-53.714432 135.97095 -36.698616 0.78549457 -14.750271 17.145084 -0.23587622 -72.99482
-0.25343749 -72.867622 -14.76246 17.356241 -38.723743 -2.1883979 -54.889549 140.6783
-14.752979 17.013924 -0.25378436 -72.869743 -54.630714 140.1413 -37.183113 5.7695336
159900000 -38.570393 -1.3625972 -53.061985 116.1054 -0.29301426 -82.778328 -13.574256 7.1461329
-53.140755 116.00641 -36.673698 -7.8816943 -13.581431 7.5119233 -0.2853756 -82.649277
-0.30408368 -82.490494 -13.594731 7.7463484 -38.68045 -11.419477 -54.58073 118.319
-13.58624 7.3777475 -0.30443788 -82.48938 -54.320213 118.34924 -36.991486 -1.3939326
178637500 -38.979149 -8.7780666 -52.372864 96.401093 -0.34808874 -92.41153 -12.577908 -2.4999487
-52.465305 96.471375 -36.819134 -14.890875 -12.584519 -2.0995021 -0.34153011 -92.283257
-0.35894775 -92.108505 -12.597446 -1.8527671 -38.840023 -19.072229 -54.09964 95.749733
-12.589808 -2.2520094 -0.36074927 -92.103821 -53.958477 94.753922 -37.37825 -8.5352898
197375000 -39.55983 -15.925478 -52.019024 74.413918 -0.40852806 -102.02985 -11.710528 -12.130079
-51.991348 74.637505 -37.241489 -23.185095 -11.716455 -11.691988 -0.40259573 -101.89413
-0.41973507 -101.70751 -11.728094 -11.43158 -39.336445 -25.863554 -53.913288 73.346489
-11.723154 -11.869332 -0.42125726 -101.70544 -53.738091 72.399857 -37.531681 -17.373222
216112500 -40.336849 -25.244173 -51.623661 54.556591 -0.47398195 -111.62615 -10.943393 -21.733944
-51.528843 54.517467 -37.775944 -29.329243 -10.949789 -21.264004 -0.46784118 -111.48895
-0.4842568 -111.29697 -10.960723 -21.008226 -39.967213 -30.290775 -53.576771 50.491676
-10.957339 -21.46447 -0.48699746 -111.29294 -53.434044 49.788151 -37.877453 -27.842291
234850000 -41.484093 -33.467625 -50.98534 34.531483 -0.5434913 -121.20737 -10.258923 -31.329075
-50.867123 34.60915 -38.479908 -36.283295 -10.264915 -30.823593 -0.53749067 -121.06862
-0.55384272 -120.87895 -10.276204 -30.572548 -40.805866 -33.693394 -53.074848 27.208506
-10.273383 -31.052229 -0.55685765 -120.87195 -52.919857 26.707588 -38.223705 -36.026672
253587500 -42.927567 -35.211792 -50.413445 13.799899 -0.61692059 -130.77466 -9.6429195 -40.910408
-50.304089 13.764938 -39.446907 -41.933167 -9.648056 -40.366951 -0.61042207 -130.63347
-0.62745827 -130.4528 -9.6607552 -40.127605 -41.875576 -34.770954 -52.467186 4.2505465
-9.6585455 -40.63306 -0.63178784 -130.43567 -52.358864 4.0507102 -38.663754 -42.868118
272325000 -44.426617 -32.145233 -49.491299 -6.1367855 -0.69430846 -140.32831 -9.0867996 -50.473667
-49.384964 -6.1506953 -40.60936 -47.227776 -9.0902081 -49.892063 -0.68891823 -140.18123
-0.70447022 -140.01822 -9.1036291 -49.668373 -43.027 -32.066902 -51.654819 -18.213392
-9.100482 -50.199051 -0.70912153 -139.98685 -51.549698 -18.465847 -39.326336 -46.275379
291062500 -45.302898 -25.694599 -48.591988 -26.169308 -0.77517229 -149.87575 -8.5795641 -60.02433
-48.457031 -26.157631 -42.331829 -48.932343 -8.5817175 -59.410774 -0.7695623 -149.71487
-0.78530782 -149.56763 -8.5970278 -59.195965 -43.70076 -25.998964 -50.618591 -42.478447
-8.5940714 -59.747162 -0.79101336 -149.52165 -50.561646 -43.003025 -39.923855 -47.846207
309800000 -45.642689 -18.456841 -47.352329 -44.410797 -0.85940272 -159.39961 -8.1158676 -69.559204
-47.242203 -44.623695 -44.277878 -46.029465 -8.1187401 -68.913879 -0.85392755 -159.23726
-0.86798918 -159.09671 -8.132206 -68.697403 -44.022247 -18.938738 -49.615623 -64.591354
-8.1306496 -69.275703 -0.87539256 -159.03342 -49.588173 -64.853928 -40.571598 -48.98431
328537500 -45.940613 -10.159546 -46.291725 -64.023079 -0.94650149 -168.90497 -7.6915064 -79.073364
-46.176304 -64.026772 -45.310379 -40.38047 -7.6946006 -78.394173 -0.94202799 -168.73718
-0.9556874 -168.61177 -7.7076802 -78.187767 -43.967381 -12.396717 -48.481884 -84.309029
-7.7064548 -78.78833 -0.96246552 -168.52878 -48.465752 -84.50338 -41.287342 -46.904831
347275000 -45.791595 -1.2727671 -45.260181 -82.375725 -1.0367213 -178.39246 -7.3007007 -88.572952
-45.12653 -82.448982 -45.923416 -34.729015 -7.3042436 -87.862206 -1.0309685 -178.21835
-1.0459379 -178.10313 -7.3180604 -87.659592 -43.610054 -6.4019151 -47.24218 -102.67855
-7.3164611 -88.284592 -1.0521604 -178.00577 -47.28096 -102.13394 -41.547169 -42.943069
366012500 -45.214603 6.6241856 -44.199673 -99.180695 -1.1287097 172.1427 -6.940743 -98.046646
-44.104889 -99.229942 -46.179668 -28.565779 -6.9444156 -97.308395 -1.1221015 172.32236
-1.1377443 172.42166 -6.9598212 -97.115555 -43.07925 -1.9182236 -46.054924 -120.70058
-6.9564834 -97.759598 -1.145082 172.53445 -46.133869 -120.01886 -41.738785 -38.302124
384750000 -44.521626 15.144867 -43.208557 -116.62797 -1.2217807 162.69487 -6.6083894 -107.50253
-43.1674 -116.6012 -46.044514 -23.250237 -6.6124291 -106.73267 -1.2153802 162.88577
-1.2328172 162.96463 -6.6293182 -106.54505 -42.391552 1.4391929 -45.120872 -136.67851
-6.6249151 -107.22619 -1.239086 163.08972 -45.19936 -136.13774 -41.648746 -32.153194
403487500 -43.350933 23.977905 -42.460094 -132.94012 -1.316813 153.26237 -6.3019037 -116.94633
-42.443279 -132.92319 -45.638527 -18.220173 -6.306664 -116.13464 -1.3114376 153.466
-1.3279506 153.52771 -6.3219967 -115.95889 -41.312939 4.0432639 -44.105515 -151.9922
-6.3187613 -116.67281 -1.3342938 153.66249 -44.189934 -151.58896 -41.38908 -26.623507
422225000 -41.650616 25.215641 -41.643276 -148.36929 -1.413671 143.8456 -6.0179725 -126.36854
-41.646976 -148.1212 -44.89196 -13.574083 -6.0236158 -125.5244 -1.408199 144.0627
-1.4245311 144.10875 -6.0381985 -125.35116 -40.088245 4.6668115 -43.228889 -166.23694
-6.0358686 -126.09399 -1.430734 144.258 -43.278339 -166.06157 -40.9375 -21.781733
440962500 -39.905491 21.943209 -41.128071 -163.37962 -1.5113721 134.44504 -5.7545547 -135.77409
-41.144844 -163.19675 -43.734634 -8.5270529 -5.7618036 -134.9016 -1.5051249 134.67741
-1.522526 134.71716 -5.7754989 -134.72621 -38.578121 1.86014 -42.483944 -179.35629
-5.7742996 -135.49254 -1.5286459 134.87143 -42.545834 -179.29224 -40.298859 -19.703051
459700000 -38.609898 15.8763 -40.535221 -177.13945 -1.6089023 125.07258 -5.5116091 -145.16438
-40.5466 -176.94781 -41.90197 -7.3707261 -5.5185328 -144.25194 -1.6031494 125.30369
-1.6206632 125.33968 -5.5315223 -144.08101 -37.423573 -5.0339894 -41.803165 169.27777
-5.5301304 -144.8755 -1.625235 125.50492 -41.861271 169.32574 -39.62455 -19.299068
478437500 -37.646553 8.3590231 -40.086971 168.84883 -1.7063457 115.71302 -5.2855902 -154.53581
-40.091976 168.98059 -39.697624 -10.358347 -5.291708 -153.58939 -1.6998584 115.95153
-1.7198311 115.97871 -5.3076787 -153.42175 -36.529926 -12.561834 -41.15765 157.10379
-5.3051448 -154.24527 -1.7242732 116.14984 -41.195553 157.15118 -38.808693 -19.771603
497175000 -36.735447 -0.34686443 -39.714718 155.56967 -1.8039407 106.3655 -5.0751624 -163.88689
-39.713936 155.78371 -38.297909 -16.316244 -5.0817389 -162.91306 -1.7965152 106.6175
-1.8173182 106.63474 -5.0977931 -162.74203 -35.82954 -19.911285 -40.745449 145.47005
-5.0960312 -163.60172 -1.8221254 106.81159 -40.775024 145.47217 -37.718925 -22.974953
515912500 -36.055622 -8.1345072 -39.28339 142.6864 -1.9011362 97.034119 -4.8811359 -173.22934
-39.291309 142.9072 -37.072803 -23.119467 -4.8880067 -172.21748 -1.8943473 97.295998
-1.9146754 97.301743 -4.9031506 -172.04889 -35.189911 -26.989071 -40.247028 133.82635
-4.9020562 -172.93967 -1.9190229 97.491516 -40.265373 133.78273 -36.810085 -27.386284
534650000 -35.445534 -14.765736 -38.829403 130.03282 -1.9972885 87.715981 -4.7016201 177.43771
-38.84922 130.28099 -36.08952 -31.013414 -4.7082229 178.49609 -1.9922429 87.987572
-2.0110953 87.983307 -4.72228 178.66116 -34.527164 -34.649479 -39.877201 121.56605
-4.7216773 177.73627 -2.0149331 88.18721 -39.893116 121.52812 -36.103844 -31.76523
553387500 -34.810146 -21.62525 -38.405655 117.98909 -2.0920227 78.411781 -4.5344944 168.12271
-38.41959 118.19726 -35.512779 -39.169018 -4.540904 169.21835 -2.0878868 78.693451
-2.1060545 78.688446 -4.5548315 169.39 -33.982014 -42.222023 -39.370369 109.92973
-4.5542636 168.43448 -2.109513 78.904007 -39.385029 109.88845 -35.542557 -36.348347
572125000 -34.356121 -29.101353 -38.031307 105.55414 -2.1862969 69.127823 -4.3788996 158.83141
-38.029221 105.74062 -34.984589 -46.747616 -4.385797 159.95361 -2.1808012 69.415886
-2.1997025 69.404312 -4.4002066 160.13712 -33.545292 -50.210926 -39.008949 98.982246
-4.3983264 159.14098 -2.2031872 69.632576 -39.02438 98.94841 -35.134941 -41.54789
590862500 -34.004002 -36.025089 -37.711899 93.595726 -2.2782922 59.854992 -4.2351823 149.55183
-37.710552 93.68821 -34.605217 -54.648964 -4.2419777 150.70198 -2.272933 60.148602
-2.2914095 60.132721 -4.2562284 150.89699 -33.129925 -58.452793 -38.707767 86.839111
-4.2534142 149.85905 -2.2946508 60.371994 -38.725887 86.766083 -34.818783 -47.290726
609600000 -33.760616 -42.901192 -37.3605 81.815773 -2.3676918 50.595146 -4.1016788 140.27713
-37.349049 81.899483 -34.293228 -62.905182 -4.1076989 141.46817 -2.3629572 50.891762
-2.381453 50.868546 -4.1233177 141.66675 -32.780338 -66.627487 -38.416626 75.03183
-4.1198788 140.58778 -2.3848588 51.125061 -38.449356 75.010033 -34.596188 -53.383152
628337500 -33.540455 -50.411652 -37.08802 69.554962 -2.455055 41.344383 -3.9778855 131.02312
-37.075413 69.604645 -34.161404 -71.074257 -3.9842956 132.24606 -2.4515269 41.655876
-2.4692006 41.616096 -3.9995492 132.44493 -32.550541 -74.538223 -38.139812 63.5261
-3.996536 131.32866 -2.4729955 41.8876 -38.151463 63.489231 -34.386898 -60.233883
647075000 -33.412296 -58.654354 -36.873295 57.75 -2.5404644 32.101734 -3.8631711 121.77576
-36.859863 57.930382 -34.13578 -78.621765 -3.8705201 123.03108 -2.5376072 32.422054
-2.5550191 32.372829 -3.8843248 123.23198 -32.421085 -82.221992 -37.965622 52.505772
-3.8822367 122.08379 -2.5575659 32.661469 -37.969841 52.528465 -34.213329 -67.264542
665812500 -33.383556 -66.123177 -36.689114 46.036968 -2.6238194 22.875366 -3.7583578 112.53987
-36.66748 46.220776 -34.083641 -86.932663 -3.765058 113.83585 -2.6212969 23.20566
-2.6382995 23.141325 -3.7797573 114.03318 -32.276852 -89.705887 -37.695213 41.506771
-3.7771053 112.84937 -2.6418166 23.445518 -37.693996 41.502892 -34.133335 -73.924751
684550000 -33.370377 -73.974464 -36.509171 35.043816 -2.7032034 13.655033 -3.6608675 103.32072
-36.493332 35.226055 -34.167812 -95.066765 -3.666316 104.64739 -2.701236 14.003829
-2.7190406 13.922592 -3.6835687 104.8461 -32.338211 -97.421638 -37.578415 30.415823
-3.6797507 103.62379 -2.7229409 14.238944 -37.574783 30.423578 -34.000023 -80.901642
703287500 -33.41164 -82.035248 -36.2976 23.147223 -2.7805562 4.4502459 -3.5713477 94.110489
-36.276268 23.372942 -34.271149 -102.83288 -3.5763133 95.470764 -2.7784538 4.8097539
-2.7965786 4.706708 -3.5938826 95.661003 -32.361492 -105.16233 -37.383102 18.834618
-3.5893769 94.409714 -2.7993827 5.0425248 -37.384533 18.900291 -33.964478 -87.777016
722025000 -33.537968 -89.852455 -36.191673 11.110852 -2.8553271 -4.7513571 -3.4889274 84.912315
-36.154175 11.348335 -34.408302 -110.90067 -3.4935873 86.302849 -2.8523211 -4.3710203
-2.8697791 -4.4966931 -3.5110204 86.492729 -32.482441 -113.19828 -37.333691 7.0308928
-3.5062928 85.192276 -2.8739493 -4.1560035 -37.324566 7.0437255 -34.002575 -94.508041
740762500 -33.756912 -97.093468 -36.162445 -0.49164236 -2.9256949 -13.948723 -3.4134505 75.715942
-36.140881 -0.25296983 -34.610256 -119.32281 -3.417115 77.1418 -2.9238999 -13.549096
-2.940572 -13.687018 -3.4351566 77.3302 -32.628834 -121.298 -37.247704 -4.7506547
-3.4301751 75.994545 -2.9447827 -13.340142 -37.223087 -4.7416677 -34.093578 -101.42213
759500000 -34.004105 -104.56779 -36.068645 -12.918819 -2.992065 -23.13839 -3.3434393 66.519341
-36.050571 -12.698809 -34.894131 -128.1571 -3.3466804 67.99675 -2.9913828 -22.716408
-3.0076408 -22.874794 -3.3653505 68.17189 -32.810581 -129.57384 -37.261055 -16.373238
-3.3599243 66.804489 -3.0124319 -22.515493 -37.223381 -16.225887 -34.181801 -108.39008
778237500 -34.270706 -112.54261 -36.007065 -25.666203 -3.055903 -32.317719 -3.2799208 57.335968
-35.990032 -25.519352 -35.249443 -137.1714 -3.2829058 58.853615 -3.0557845 -31.883078
-3.0714736 -32.058857 -3.3014483 59.028553 -33.092907 -137.92622 -37.253067 -27.712645
-3.2955666 57.616989 -3.075927 -31.681232 -37.211979 -27.558455 -34.24839 -115.25851
796975000 -34.576004 -120.75089 -36.020641 -38.227028 -3.1170592 -41.491703 -3.2223592 48.154747
-36.002701 -38.036037 -35.665207 -146.15717 -3.2245972 49.713364 -3.1163971 -41.046574
-3.1314709 -41.234108 -3.2437923 49.886097 -33.399532 -145.84758 -37.379215 -39.430771
-3.2370973 48.441124 -3.1372223 -40.842636 -37.338131 -39.261826 -34.35376 -122.15411
815712500 -34.923115 -128.48868 -36.066586 -50.573368 -3.1736505 -50.662617 -3.1695974 38.98452
-36.051506 -50.440651 -36.040813 -155.43678 -3.1711578 40.578262 -3.173152 -50.19656
-3.1874678 -50.402031 -3.1908531 40.755623 -33.646908 -154.08363 -37.455528 -51.433144
-3.1833916 39.262581 -3.1942685 -50.001884 -37.424763 -51.267723 -34.600906 -128.34863
834450000 -35.23008 -136.35811 -36.089489 -63.263065 -3.225909 -59.828529 -3.1217177 29.808653
-36.080921 -63.13937 -36.522427 -164.60004 -3.1227345 31.44945 -3.2268858 -59.352745
-3.2394457 -59.570343 -3.1420572 31.621265 -34.025608 -162.28598 -37.550003 -63.668243
-3.1332867 30.093048 -3.2456086 -59.154999 -37.522655 -63.46431 -34.844929 -134.65973
853187500 -35.626297 -143.85873 -36.181625 -76.718208 -3.2752106 -68.989098 -3.078347 20.638624
-36.167587 -76.552422 -37.062138 -173.55666 -3.0798733 22.32428 -3.2764418 -68.503754
-3.2881699 -68.732079 -3.0975535 22.496922 -34.410286 -169.77762 -37.633919 -76.142509
-3.0888143 20.92523 -3.2938917 -68.303513 -37.619747 -75.941467 -35.217686 -141.32654
871925000 -36.157619 -151.2247 -36.342243 -90.188797 -3.3208346 -78.153374 -3.0385087 11.47211
-36.327988 -90.033516 -37.597301 177.70631 -3.0405397 13.199324 -3.3211248 -77.6502
-3.3332827 -77.887253 -3.0581951 13.378863 -34.906849 -177.05673 -37.818474 -88.282745
-3.0503118 11.757118 -3.3402457 -77.452209 -37.810059 -88.221344 -35.583534 -148.27209
890662500 -36.67466 -158.54082 -36.517097 -103.81552 -3.3624811 -87.314636 -3.0032928 2.3012469
-36.513893 -103.67108 -38.204857 168.21217 -3.0058601 4.0742717 -3.3628438 -86.802269
-3.374742 -87.049728 -3.0232494 4.2556458 -35.384624 175.55223 -38.027794 -100.85429
-3.0156119 2.5975909 -3.3824713 -86.589653 -38.025841 -100.78584 -35.96048 -154.87144
909400000 -37.107231 -166.77249 -36.686821 -117.75857 -3.4004576 -96.468399 -2.9719069 -6.8694987
-36.674522 -117.64133 -39.038982 158.72433 -2.9739456 -5.0455966 -3.399843 -95.954865
-3.4128156 -96.215759 -2.9931238 -4.8706679 -35.982437 168.22481 -38.362431 -114.06199
-2.984772 -6.5650749 -3.4215639 -95.728828 -38.365837 -113.97116 -36.263786 -161.10776
928137500 -37.588257 -174.903 -36.86388 -131.69539 -3.4357839 -105.63036 -2.9453883 -16.034164
-36.855961 -131.578 -39.828274 150.15204 -2.9469764 -14.17806 -3.4345593 -105.106
-3.4476259 -105.37117 -2.9662251 -13.989258 -36.621086 161.89653 -38.684399 -126.64115
-2.9575772 -15.729767 -3.4559095 -104.87188 -38.70266 -126.49888 -36.68066 -167.17313
946875000 -38.068233 178.14297 -37.139175 -146.25943 -3.4671428 -114.79086 -2.9219034 -25.201975
-37.126728 -146.06834 -40.654583 140.99925 -2.9236732 -23.304939 -3.4657621 -114.25315
-3.4782081 -114.52512 -2.9419942 -23.11297 -37.208172 156.29327 -38.966057 -140.19679
-2.9338095 -24.891897 -3.4866006 -114.01435 -38.968136 -140.04872 -37.268349 -172.05968
965612500 -38.577835 171.33472 -37.417252 -160.76215 -3.4945955 -123.94833 -2.9009149 -34.371925
-37.405075 -160.60387 -41.68317 132.37022 -2.9039161 -32.423931 -3.4931145 -123.39944
-3.5059743 -123.68539 -2.9215281 -32.23827 -37.869091 150.13335 -39.188751 -154.60925
-2.9135268 -34.058231 -3.5134461 -123.15648 -39.190289 -154.44528 -37.860073 -175.98038
984350000 -38.996098 164.84749 -37.609222 -175.63045 -3.5190778 -133.1068 -2.8837092 -43.542858
-37.609753 -175.53664 -43.172882 123.39349 -2.8880403 -41.545689 -3.5175471 -132.54642
-3.5294621 -132.84236 -2.9038975 -41.364559 -38.626953 144.55212 -39.479431 -169.19331
-2.8963859 -43.222443 -3.5370193 -132.30171 -39.479149 -169.06606 -38.367939 -179.88356
1003087500 -39.612064 158.27519 -37.789326 168.75009 -3.5396571 -142.26953 -2.8692214 -52.712509
-37.793015 168.83698 -44.537621 119.77294 -2.8738179 -50.67458 -3.5373719 -141.69406
-3.5513988 -141.99724 -2.8903575 -50.483288 -39.472038 140.60791 -39.734371 175.38333
-2.8836727 -52.39267 -3.5582821 -141.44412 -39.730274 175.50136 -38.87088 175.70871
1021825000 -40.327999 151.6937 -37.979485 152.90739 -3.5572619 -151.43292 -2.858109 -61.888931
