!Agilent Technologies,N5230A,MY45000942,A.07.12.01
!Agilent N5230A: A.07.12.01
!Date: Thursday, January 07, 2010 11:00:11
!Correction: S11(Full 2 Port(1,2)) 
!S21(Full 2 Port(1,2)) 
!S12(Full 2 Port(1,2)) 
!S22(Full 2 Port(1,2)) 
!S2P File: Measurements: S11, S21, S12, S22:
# Hz S  dB   R 50
1000000 -2.162013e+000 -1.673312e+001 2.420141e+001 1.737364e+002 -3.322104e+001 4.788437e+001 -8.973430e+000 -2.228448e+001
5998000 -6.665304e+000 -7.235532e+001 2.110375e+001 1.665517e+002 -2.385643e+001 2.672497e+001 -1.335453e+001 -9.071021e+001
10996000 -1.077047e+001 -9.590920e+001 2.076566e+001 1.694350e+002 -2.293377e+001 1.540897e+001 -1.525342e+001 -1.191999e+002
15994000 -1.324572e+001 -1.108823e+002 2.056116e+001 1.710759e+002 -2.272265e+001 1.022375e+001 -1.588275e+001 -1.335786e+002
20992000 -1.496944e+001 -1.218360e+002 2.039127e+001 1.719517e+002 -2.266722e+001 7.332579e+000 -1.607941e+001 -1.422699e+002
25990000 -1.620211e+001 -1.298399e+002 2.027801e+001 1.724033e+002 -2.265604e+001 5.509267e+000 -1.614146e+001 -1.480918e+002
30988000 -1.709418e+001 -1.359742e+002 2.019728e+001 1.727942e+002 -2.265800e+001 4.276341e+000 -1.615635e+001 -1.522635e+002
35986000 -1.774802e+001 -1.406227e+002 2.013715e+001 1.729682e+002 -2.266331e+001 3.358461e+000 -1.615793e+001 -1.553662e+002
40984000 -1.823948e+001 -1.443975e+002 2.006406e+001 1.732355e+002 -2.267065e+001 2.656184e+000 -1.615233e+001 -1.577652e+002
45982000 -1.860845e+001 -1.472657e+002 2.003374e+001 1.732079e+002 -2.267604e+001 2.106692e+000 -1.614844e+001 -1.596178e+002
50980000 -1.889234e+001 -1.495685e+002 2.001180e+001 1.731308e+002 -2.268122e+001 1.638286e+000 -1.614352e+001 -1.611000e+002
55978000 -1.911351e+001 -1.514819e+002 1.999416e+001 1.730155e+002 -2.268328e+001 1.250838e+000 -1.613996e+001 -1.622838e+002
60976000 -1.928610e+001 -1.530567e+002 1.998216e+001 1.728485e+002 -2.268781e+001 9.035260e-001 -1.613400e+001 -1.632621e+002
65974000 -1.942833e+001 -1.543785e+002 1.996723e+001 1.726597e+002 -2.268842e+001 5.934380e-001 -1.612961e+001 -1.640956e+002
70972000 -1.954824e+001 -1.554513e+002 1.995418e+001 1.724644e+002 -2.268992e+001 3.117593e-001 -1.613087e+001 -1.647464e+002
75970000 -1.964171e+001 -1.563523e+002 1.994423e+001 1.722667e+002 -2.268924e+001 5.192652e-002 -1.612631e+001 -1.652868e+002
80968000 -1.972067e+001 -1.571056e+002 1.993414e+001 1.720411e+002 -2.269148e+001 -1.850296e-001 -1.611972e+001 -1.657453e+002
85966000 -1.978817e+001 -1.577365e+002 1.992623e+001 1.717961e+002 -2.269098e+001 -4.244264e-001 -1.611469e+001 -1.661213e+002
90964000 -1.984472e+001 -1.582378e+002 1.991841e+001 1.715467e+002 -2.269161e+001 -6.358600e-001 -1.610980e+001 -1.664456e+002
95962000 -1.989299e+001 -1.586549e+002 1.991085e+001 1.712836e+002 -2.268944e+001 -8.488682e-001 -1.610301e+001 -1.667038e+002
100960000 -1.993027e+001 -1.589615e+002 1.990351e+001 1.710038e+002 -2.268892e+001 -1.044332e+000 -1.609798e+001 -1.669343e+002
105958000 -1.996049e+001 -1.591996e+002 1.989611e+001 1.707206e+002 -2.268888e+001 -1.233496e+000 -1.609252e+001 -1.671065e+002
110956000 -1.998180e+001 -1.593895e+002 1.988964e+001 1.704350e+002 -2.268807e+001 -1.435202e+000 -1.608596e+001 -1.672447e+002
115954000 -1.999579e+001 -1.595509e+002 1.988372e+001 1.701310e+002 -2.268798e+001 -1.618331e+000 -1.608081e+001 -1.673525e+002
120952000 -2.000599e+001 -1.596728e+002 1.987906e+001 1.698298e+002 -2.268622e+001 -1.797455e+000 -1.607305e+001 -1.674170e+002
125950000 -2.001754e+001 -1.598036e+002 1.987492e+001 1.695276e+002 -2.268551e+001 -1.970806e+000 -1.606913e+001 -1.674573e+002
130948000 -2.002704e+001 -1.598700e+002 1.987194e+001 1.692171e+002 -2.268327e+001 -2.140890e+000 -1.606004e+001 -1.674581e+002
135946000 -2.003452e+001 -1.599078e+002 1.987057e+001 1.689025e+002 -2.268338e+001 -2.315411e+000 -1.605201e+001 -1.674410e+002
140944000 -2.003868e+001 -1.599092e+002 1.987003e+001 1.685776e+002 -2.268330e+001 -2.500258e+000 -1.603898e+001 -1.673878e+002
145942000 -2.003778e+001 -1.599084e+002 1.986881e+001 1.682564e+002 -2.268468e+001 -2.660131e+000 -1.602490e+001 -1.673449e+002
150940000 -2.003274e+001 -1.599383e+002 1.986522e+001 1.679386e+002 -2.268707e+001 -2.818122e+000 -1.599846e+001 -1.673353e+002
155938000 -2.005676e+001 -1.599896e+002 1.985483e+001 1.676053e+002 -2.268333e+001 -2.935928e+000 -1.600420e+001 -1.674135e+002
160936000 -2.006854e+001 -1.597436e+002 1.984339e+001 1.673049e+002 -2.267622e+001 -3.100367e+000 -1.600022e+001 -1.672481e+002
165934000 -2.006672e+001 -1.595428e+002 1.983402e+001 1.670027e+002 -2.267732e+001 -3.257486e+000 -1.599135e+001 -1.671365e+002
170932000 -2.005795e+001 -1.593218e+002 1.982669e+001 1.666896e+002 -2.267523e+001 -3.425967e+000 -1.597589e+001 -1.670065e+002
175930000 -2.003799e+001 -1.590847e+002 1.981958e+001 1.663770e+002 -2.267473e+001 -3.581074e+000 -1.595958e+001 -1.668721e+002
180928000 -2.001953e+001 -1.588939e+002 1.981279e+001 1.660553e+002 -2.267388e+001 -3.750816e+000 -1.593845e+001 -1.667496e+002
185926000 -1.999323e+001 -1.586682e+002 1.980559e+001 1.657321e+002 -2.267319e+001 -3.890917e+000 -1.592214e+001 -1.666208e+002
190924000 -1.996004e+001 -1.584718e+002 1.979964e+001 1.654052e+002 -2.267232e+001 -4.034475e+000 -1.590288e+001 -1.664698e+002
195922000 -1.992384e+001 -1.582989e+002 1.979349e+001 1.650820e+002 -2.266981e+001 -4.196522e+000 -1.587677e+001 -1.663457e+002
200920000 -1.989504e+001 -1.582024e+002 1.978940e+001 1.647488e+002 -2.267056e+001 -4.346386e+000 -1.585600e+001 -1.662365e+002
205918000 -1.987560e+001 -1.580744e+002 1.978519e+001 1.644160e+002 -2.266811e+001 -4.492412e+000 -1.583517e+001 -1.660979e+002
210916000 -1.985346e+001 -1.579182e+002 1.978111e+001 1.640862e+002 -2.266843e+001 -4.651351e+000 -1.581309e+001 -1.659740e+002
215914000 -1.983702e+001 -1.577583e+002 1.977831e+001 1.637486e+002 -2.266655e+001 -4.790749e+000 -1.579180e+001 -1.658362e+002
220912000 -1.981488e+001 -1.575696e+002 1.977336e+001 1.634153e+002 -2.266552e+001 -4.932350e+000 -1.576829e+001 -1.657105e+002
225910000 -1.979992e+001 -1.573579e+002 1.976975e+001 1.630838e+002 -2.266479e+001 -5.101656e+000 -1.574467e+001 -1.655900e+002
230908000 -1.977835e+001 -1.571030e+002 1.976427e+001 1.627565e+002 -2.266421e+001 -5.248434e+000 -1.572337e+001 -1.654445e+002
235906000 -1.975529e+001 -1.568603e+002 1.975817e+001 1.624304e+002 -2.266432e+001 -5.390662e+000 -1.569911e+001 -1.653092e+002
240904000 -1.972447e+001 -1.565824e+002 1.975262e+001 1.620969e+002 -2.266221e+001 -5.536381e+000 -1.567430e+001 -1.651777e+002
245902000 -1.968985e+001 -1.563042e+002 1.974630e+001 1.617630e+002 -2.266206e+001 -5.688665e+000 -1.564931e+001 -1.650528e+002
250900000 -1.965403e+001 -1.560509e+002 1.974083e+001 1.614272e+002 -2.266158e+001 -5.828978e+000 -1.562592e+001 -1.649192e+002
255898000 -1.961106e+001 -1.558061e+002 1.973461e+001 1.610910e+002 -2.265879e+001 -5.971087e+000 -1.560286e+001 -1.647654e+002
260896000 -1.956626e+001 -1.555795e+002 1.972814e+001 1.607585e+002 -2.266020e+001 -6.116694e+000 -1.557592e+001 -1.646281e+002
265894000 -1.952129e+001 -1.553947e+002 1.972231e+001 1.604189e+002 -2.265874e+001 -6.259297e+000 -1.555057e+001 -1.644772e+002
270892000 -1.947967e+001 -1.552057e+002 1.971632e+001 1.600904e+002 -2.265827e+001 -6.408976e+000 -1.552448e+001 -1.643398e+002
275890000 -1.943733e+001 -1.550257e+002 1.971240e+001 1.597623e+002 -2.265672e+001 -6.555348e+000 -1.549510e+001 -1.641884e+002
280888000 -1.939592e+001 -1.548353e+002 1.970985e+001 1.594265e+002 -2.265779e+001 -6.705970e+000 -1.546787e+001 -1.640155e+002
285886000 -1.935042e+001 -1.546794e+002 1.970802e+001 1.590739e+002 -2.265470e+001 -6.864787e+000 -1.543177e+001 -1.638495e+002
290884000 -1.929728e+001 -1.545327e+002 1.970518e+001 1.587147e+002 -2.265720e+001 -7.021010e+000 -1.539540e+001 -1.637225e+002
295882000 -1.925380e+001 -1.544234e+002 1.970077e+001 1.583644e+002 -2.265998e+001 -7.151041e+000 -1.535729e+001 -1.636074e+002
300880000 -1.920950e+001 -1.544503e+002 1.969522e+001 1.580002e+002 -2.266424e+001 -7.308489e+000 -1.531298e+001 -1.636093e+002
305878000 -1.919873e+001 -1.544397e+002 1.968650e+001 1.576487e+002 -2.266625e+001 -7.387475e+000 -1.529537e+001 -1.636163e+002
310876000 -1.918580e+001 -1.541977e+002 1.967680e+001 1.573270e+002 -2.266228e+001 -7.496295e+000 -1.528146e+001 -1.635113e+002
315874000 -1.915763e+001 -1.539369e+002 1.966957e+001 1.569993e+002 -2.265873e+001 -7.644875e+000 -1.525868e+001 -1.633570e+002
320872000 -1.911296e+001 -1.536798e+002 1.966264e+001 1.566692e+002 -2.265499e+001 -7.782361e+000 -1.522855e+001 -1.632043e+002
325870000 -1.906802e+001 -1.535662e+002 1.965498e+001 1.563198e+002 -2.265776e+001 -7.926350e+000 -1.519323e+001 -1.631322e+002
330868000 -1.904121e+001 -1.533933e+002 1.964593e+001 1.559908e+002 -2.265642e+001 -8.054574e+000 -1.517226e+001 -1.630223e+002
335866000 -1.900248e+001 -1.532117e+002 1.963807e+001 1.556497e+002 -2.265505e+001 -8.188135e+000 -1.514485e+001 -1.629059e+002
340864000 -1.895640e+001 -1.530508e+002 1.963104e+001 1.552914e+002 -2.265265e+001 -8.333271e+000 -1.511051e+001 -1.627989e+002
345862000 -1.891957e+001 -1.529380e+002 1.962379e+001 1.549405e+002 -2.265040e+001 -8.483584e+000 -1.507962e+001 -1.627103e+002
350860000 -1.889034e+001 -1.528313e+002 1.961380e+001 1.545858e+002 -2.265069e+001 -8.599724e+000 -1.505223e+001 -1.626582e+002
355858000 -1.886659e+001 -1.526625e+002 1.960465e+001 1.542389e+002 -2.264857e+001 -8.727066e+000 -1.502998e+001 -1.625856e+002
360856000 -1.884608e+001 -1.525215e+002 1.959504e+001 1.538899e+002 -2.264958e+001 -8.846405e+000 -1.500932e+001 -1.625290e+002
365854000 -1.883908e+001 -1.522698e+002 1.958315e+001 1.535405e+002 -2.264668e+001 -8.962724e+000 -1.499913e+001 -1.624310e+002
370852000 -1.882418e+001 -1.518858e+002 1.957145e+001 1.532168e+002 -2.263775e+001 -9.088918e+000 -1.498656e+001 -1.622763e+002
375850000 -1.879259e+001 -1.514010e+002 1.955858e+001 1.529003e+002 -2.263131e+001 -9.235459e+000 -1.497404e+001 -1.620300e+002
380848000 -1.874071e+001 -1.508570e+002 1.954590e+001 1.526045e+002 -2.262441e+001 -9.392569e+000 -1.494919e+001 -1.617585e+002
385846000 -1.864374e+001 -1.503926e+002 1.953807e+001 1.523123e+002 -2.261971e+001 -9.602128e+000 -1.490072e+001 -1.614711e+002
390844000 -1.855660e+001 -1.502558e+002 1.953030e+001 1.520053e+002 -2.262299e+001 -9.761313e+000 -1.485921e+001 -1.613499e+002
395842000 -1.848669e+001 -1.499568e+002 1.952016e+001 1.517219e+002 -2.261774e+001 -9.935384e+000 -1.482534e+001 -1.610559e+002
400840000 -1.836384e+001 -1.499210e+002 1.951900e+001 1.514242e+002 -2.262266e+001 -1.012636e+001 -1.474404e+001 -1.609299e+002
405838000 -1.829814e+001 -1.500019e+002 1.951241e+001 1.510912e+002 -2.262816e+001 -1.026120e+001 -1.470325e+001 -1.609220e+002
410836000 -1.825355e+001 -1.501041e+002 1.950337e+001 1.507643e+002 -2.262996e+001 -1.038095e+001 -1.467357e+001 -1.608658e+002
415834000 -1.820670e+001 -1.500229e+002 1.949728e+001 1.504501e+002 -2.263016e+001 -1.052049e+001 -1.462835e+001 -1.607584e+002
420832000 -1.815995e+001 -1.499448e+002 1.949018e+001 1.501264e+002 -2.262974e+001 -1.065458e+001 -1.458895e+001 -1.607117e+002
425830000 -1.809797e+001 -1.498975e+002 1.948566e+001 1.497981e+002 -2.262571e+001 -1.082949e+001 -1.454649e+001 -1.606191e+002
430828000 -1.806015e+001 -1.498950e+002 1.947812e+001 1.494599e+002 -2.262907e+001 -1.096425e+001 -1.451212e+001 -1.606054e+002
435826000 -1.802511e+001 -1.497486e+002 1.947104e+001 1.491323e+002 -2.262630e+001 -1.108680e+001 -1.448539e+001 -1.604555e+002
440824000 -1.795699e+001 -1.495219e+002 1.946601e+001 1.488234e+002 -2.262472e+001 -1.129361e+001 -1.443679e+001 -1.602544e+002
445822000 -1.787225e+001 -1.495434e+002 1.946297e+001 1.485116e+002 -2.263092e+001 -1.148911e+001 -1.436550e+001 -1.601479e+002
450820000 -1.781737e+001 -1.497639e+002 1.945940e+001 1.481676e+002 -2.264479e+001 -1.160935e+001 -1.430991e+001 -1.602504e+002
455818000 -1.779328e+001 -1.498835e+002 1.945289e+001 1.478221e+002 -2.265035e+001 -1.167678e+001 -1.427420e+001 -1.603594e+002
460816000 -1.777018e+001 -1.498231e+002 1.944447e+001 1.474783e+002 -2.264715e+001 -1.176781e+001 -1.424521e+001 -1.603517e+002
465814000 -1.772691e+001 -1.496971e+002 1.943622e+001 1.471487e+002 -2.264262e+001 -1.192392e+001 -1.420592e+001 -1.602873e+002
470812000 -1.768210e+001 -1.496340e+002 1.942624e+001 1.468167e+002 -2.263984e+001 -1.205773e+001 -1.416879e+001 -1.602921e+002
475810000 -1.763977e+001 -1.496117e+002 1.941690e+001 1.464819e+002 -2.264200e+001 -1.216484e+001 -1.413417e+001 -1.603016e+002
480808000 -1.760418e+001 -1.496052e+002 1.940682e+001 1.461476e+002 -2.264220e+001 -1.228897e+001 -1.410413e+001 -1.603254e+002
485806000 -1.756543e+001 -1.494935e+002 1.939626e+001 1.458198e+002 -2.263799e+001 -1.240547e+001 -1.407383e+001 -1.602789e+002
490804000 -1.752461e+001 -1.493894e+002 1.938494e+001 1.454993e+002 -2.263391e+001 -1.254684e+001 -1.403859e+001 -1.602243e+002
495802000 -1.746999e+001 -1.492759e+002 1.937670e+001 1.451873e+002 -2.263185e+001 -1.269703e+001 -1.400008e+001 -1.601391e+002
500800000 -1.742010e+001 -1.492613e+002 1.936908e+001 1.448587e+002 -2.263188e+001 -1.285941e+001 -1.395786e+001 -1.601463e+002
505798000 -1.737487e+001 -1.492067e+002 1.936181e+001 1.445297e+002 -2.263070e+001 -1.300054e+001 -1.391909e+001 -1.601402e+002
510796000 -1.732319e+001 -1.491516e+002 1.935422e+001 1.442047e+002 -2.263397e+001 -1.314491e+001 -1.388142e+001 -1.601467e+002
515794000 -1.726677e+001 -1.491478e+002 1.934785e+001 1.438771e+002 -2.263485e+001 -1.328344e+001 -1.384231e+001 -1.601745e+002
520792000 -1.722359e+001 -1.492042e+002 1.934116e+001 1.435393e+002 -2.263808e+001 -1.341121e+001 -1.381243e+001 -1.602050e+002
525790000 -1.717654e+001 -1.491965e+002 1.933343e+001 1.432069e+002 -2.263684e+001 -1.356190e+001 -1.377418e+001 -1.601783e+002
530788000 -1.713621e+001 -1.492534e+002 1.932526e+001 1.428679e+002 -2.263947e+001 -1.368986e+001 -1.373696e+001 -1.602439e+002
535786000 -1.709810e+001 -1.492645e+002 1.931579e+001 1.425330e+002 -2.263697e+001 -1.383169e+001 -1.370241e+001 -1.602634e+002
540784000 -1.706684e+001 -1.493449e+002 1.930471e+001 1.421960e+002 -2.264150e+001 -1.395301e+001 -1.367480e+001 -1.603295e+002
545782000 -1.704385e+001 -1.493736e+002 1.929211e+001 1.418647e+002 -2.264092e+001 -1.405788e+001 -1.364563e+001 -1.603707e+002
550780000 -1.702356e+001 -1.493230e+002 1.927850e+001 1.415367e+002 -2.264138e+001 -1.415607e+001 -1.362573e+001 -1.604026e+002
555778000 -1.699672e+001 -1.491290e+002 1.926388e+001 1.412348e+002 -2.263482e+001 -1.428446e+001 -1.360653e+001 -1.603383e+002
560776000 -1.695144e+001 -1.490121e+002 1.925350e+001 1.409279e+002 -2.263231e+001 -1.440582e+001 -1.357578e+001 -1.602828e+002
565774000 -1.690301e+001 -1.488863e+002 1.924310e+001 1.406257e+002 -2.262580e+001 -1.456134e+001 -1.354319e+001 -1.602091e+002
570772000 -1.685290e+001 -1.488270e+002 1.923468e+001 1.403210e+002 -2.262304e+001 -1.470367e+001 -1.350564e+001 -1.601600e+002
575770000 -1.679991e+001 -1.487905e+002 1.922712e+001 1.400093e+002 -2.262318e+001 -1.486710e+001 -1.346374e+001 -1.601440e+002
580768000 -1.675067e+001 -1.487950e+002 1.921989e+001 1.396921e+002 -2.262387e+001 -1.502552e+001 -1.342582e+001 -1.601555e+002
585766000 -1.670372e+001 -1.487789e+002 1.921265e+001 1.393736e+002 -2.262223e+001 -1.516155e+001 -1.338840e+001 -1.601684e+002
590764000 -1.665603e+001 -1.487835e+002 1.920667e+001 1.390553e+002 -2.262236e+001 -1.530105e+001 -1.335057e+001 -1.601808e+002
595762000 -1.660859e+001 -1.487998e+002 1.919848e+001 1.387280e+002 -2.262317e+001 -1.544256e+001 -1.331431e+001 -1.602098e+002
600760000 -1.656191e+001 -1.488300e+002 1.919129e+001 1.384048e+002 -2.262477e+001 -1.557141e+001 -1.327672e+001 -1.602336e+002
605758000 -1.652076e+001 -1.488835e+002 1.918319e+001 1.380722e+002 -2.262393e+001 -1.570064e+001 -1.324282e+001 -1.602833e+002
610756000 -1.647991e+001 -1.488885e+002 1.917320e+001 1.377508e+002 -2.262469e+001 -1.584107e+001 -1.321054e+001 -1.603081e+002
615754000 -1.644009e+001 -1.489205e+002 1.916312e+001 1.374319e+002 -2.262354e+001 -1.597449e+001 -1.317628e+001 -1.603342e+002
620752000 -1.639575e+001 -1.488957e+002 1.915287e+001 1.371120e+002 -2.261802e+001 -1.612855e+001 -1.314151e+001 -1.603468e+002
625750000 -1.635026e+001 -1.489324e+002 1.914394e+001 1.367974e+002 -2.261929e+001 -1.627274e+001 -1.310364e+001 -1.603974e+002
630748000 -1.630950e+001 -1.489799e+002 1.913463e+001 1.364720e+002 -2.261960e+001 -1.641111e+001 -1.306852e+001 -1.604626e+002
635746000 -1.626960e+001 -1.490209e+002 1.912406e+001 1.361505e+002 -2.261936e+001 -1.654723e+001 -1.303662e+001 -1.605089e+002
640744000 -1.623080e+001 -1.490675e+002 1.911410e+001 1.358299e+002 -2.261998e+001 -1.669772e+001 -1.300444e+001 -1.605792e+002
645742000 -1.619168e+001 -1.491196e+002 1.910404e+001 1.355019e+002 -2.262058e+001 -1.683268e+001 -1.297384e+001 -1.606410e+002
650740000 -1.615534e+001 -1.491411e+002 1.909426e+001 1.351815e+002 -2.261922e+001 -1.697045e+001 -1.294118e+001 -1.606901e+002
655738000 -1.611469e+001 -1.491994e+002 1.908472e+001 1.348614e+002 -2.262048e+001 -1.711070e+001 -1.291102e+001 -1.607569e+002
660736000 -1.607934e+001 -1.492394e+002 1.907432e+001 1.345370e+002 -2.262242e+001 -1.724930e+001 -1.288364e+001 -1.607994e+002
665734000 -1.604403e+001 -1.492694e+002 1.906431e+001 1.342193e+002 -2.262241e+001 -1.739101e+001 -1.285275e+001 -1.608421e+002
670732000 -1.600726e+001 -1.493179e+002 1.905510e+001 1.338950e+002 -2.262180e+001 -1.750620e+001 -1.281928e+001 -1.608971e+002
675730000 -1.597451e+001 -1.493665e+002 1.904390e+001 1.335775e+002 -2.262230e+001 -1.764223e+001 -1.278940e+001 -1.609486e+002
680728000 -1.593709e+001 -1.493849e+002 1.903280e+001 1.332635e+002 -2.262050e+001 -1.778422e+001 -1.276000e+001 -1.609826e+002
685726000 -1.590177e+001 -1.494453e+002 1.902251e+001 1.329515e+002 -2.262186e+001 -1.791574e+001 -1.273009e+001 -1.610415e+002
690724000 -1.586856e+001 -1.494874e+002 1.901095e+001 1.326397e+002 -2.262113e+001 -1.804718e+001 -1.269932e+001 -1.610969e+002
695722000 -1.583476e+001 -1.495477e+002 1.899905e+001 1.323283e+002 -2.262140e+001 -1.818056e+001 -1.266879e+001 -1.611625e+002
700720000 -1.580244e+001 -1.495734e+002 1.898799e+001 1.320219e+002 -2.261834e+001 -1.830179e+001 -1.264029e+001 -1.612076e+002
705718000 -1.576765e+001 -1.496193e+002 1.897664e+001 1.317150e+002 -2.261602e+001 -1.846256e+001 -1.260768e+001 -1.612605e+002
710716000 -1.573435e+001 -1.496752e+002 1.896532e+001 1.314013e+002 -2.261761e+001 -1.859526e+001 -1.257845e+001 -1.613309e+002
715714000 -1.570059e+001 -1.497084e+002 1.895448e+001 1.310924e+002 -2.261843e+001 -1.872954e+001 -1.254758e+001 -1.613888e+002
720712000 -1.566735e+001 -1.497626e+002 1.894431e+001 1.307774e+002 -2.261817e+001 -1.885553e+001 -1.251962e+001 -1.614741e+002
725710000 -1.563398e+001 -1.497986e+002 1.893405e+001 1.304678e+002 -2.261560e+001 -1.900787e+001 -1.249266e+001 -1.615381e+002
730708000 -1.560175e+001 -1.498383e+002 1.892344e+001 1.301552e+002 -2.261507e+001 -1.914926e+001 -1.246425e+001 -1.615978e+002
735706000 -1.556591e+001 -1.498672e+002 1.891352e+001 1.298467e+002 -2.261564e+001 -1.926972e+001 -1.243688e+001 -1.616609e+002
740704000 -1.553288e+001 -1.499211e+002 1.890287e+001 1.295348e+002 -2.261591e+001 -1.940663e+001 -1.240964e+001 -1.617171e+002
745702000 -1.549955e+001 -1.499510e+002 1.889314e+001 1.292295e+002 -2.261576e+001 -1.955166e+001 -1.238102e+001 -1.617792e+002
750700000 -1.546924e+001 -1.500193e+002 1.888040e+001 1.289165e+002 -2.261359e+001 -1.967819e+001 -1.235224e+001 -1.618514e+002
755698000 -1.543456e+001 -1.500791e+002 1.887008e+001 1.286053e+002 -2.261444e+001 -1.982174e+001 -1.232459e+001 -1.619222e+002
760696000 -1.540087e+001 -1.501258e+002 1.885919e+001 1.282984e+002 -2.261481e+001 -1.995892e+001 -1.229620e+001 -1.619917e+002
765694000 -1.536796e+001 -1.501819e+002 1.884806e+001 1.279847e+002 -2.261319e+001 -2.008611e+001 -1.226849e+001 -1.620664e+002
