! Created Thu Feb 07 07:06:51 2013
# hz S db R 50
! 2 Port Network Data from SP1.SP block
! freq  dbS11  angS11  dbS21  angS21  dbS12  angS12  dbS22  angS22  
!     
          10000000       -10.0226045        -40.6285548         21.2127496         170.351685        -27.8901804         17.8602948        -11.8130577        -154.767352
          11000000       -10.7957398        -39.9760044         21.3056067         171.080569        -27.6474233         15.7787694        -11.8160832        -156.588709
          12000000       -11.5664901        -39.5000066         21.4321499         171.398506        -27.5099401         14.1138664         -11.857704        -157.559983
          13000000       -12.3343639        -38.8776967         21.5434245         171.528225        -27.4203855         12.4599345        -11.8823857        -157.941889
          14000000       -13.0558079        -37.9702067         21.6354464         171.478318        -27.3478736         11.0952184        -11.8975341        -157.884443
          15000000       -13.7143911        -36.6603889         21.7055676         171.382647        -27.2861724         9.67221718         -11.877994        -157.641161
          16000000       -14.3162284        -34.8687751         21.7541189         171.228796        -27.2517111           8.473721        -11.8467217        -157.170673
          17000000       -14.8459358        -32.7635966          21.779192         171.034496         -27.222788         7.26668705        -11.7795329        -156.721319
          18000000       -15.2668313        -30.2941292         21.7834153         170.838259        -27.2009647         6.22479891        -11.7024944         -156.13573
          19000000       -15.6119249        -27.6529325         21.7755239         170.642807        -27.1899061          5.2021497        -11.6046262        -155.562675
          20000000       -15.8887129        -24.9135124         21.7596686         170.444938        -27.1982914         4.20510969        -11.4939475        -154.986083
          21000000        -16.127715        -22.1429183         21.7406531         170.248159        -27.2173469         3.27329767        -11.3577791        -154.410841
          22000000       -16.2691538        -19.4076476          21.710294         170.077627         -27.228026         2.44228713        -11.2174883        -153.940842
          23000000       -16.3533289         -16.764678         21.6786608         169.909058        -27.2350092         1.59377065        -11.0658401        -153.557557
          24000000       -16.4000326        -14.3123877         21.6468719         169.735711        -27.2619581        0.813568752         -10.910718        -153.263234
          25000000       -16.4172726        -11.8641387         21.6145194         169.581136        -27.2846106       0.0432989968        -10.7579376        -152.935389
          26000000       -16.4203661        -9.60177634         21.5834937         169.412408        -27.3133463       -0.639421787        -10.5956557        -152.749332
          27000000       -16.3907016         -7.4498469         21.5530191         169.251288        -27.3386809        -1.41427424        -10.4399666        -152.583628
          28000000       -16.3564919        -5.34165325         21.5255121         169.078478        -27.3822979        -2.01571753        -10.2850376         -152.47044
          29000000       -16.3151316        -3.38245783         21.4972866         168.898561        -27.4192134        -2.55903432        -10.1302873        -152.434018
          30000000       -16.2627347        -1.43812371         21.4751987         168.712241        -27.4582913        -3.18294138        -9.98394406        -152.394812
          31000000       -16.2094597        0.429410155         21.4494493         168.507033        -27.5025107        -3.71221764        -9.83870168        -152.429148
          32000000       -16.1523085         2.34698495         21.4317222         168.272063        -27.5500578        -4.23496759        -9.70395693        -152.488361
          33000000       -16.1074681         4.29485934         21.4165872         168.021338        -27.5956728        -4.72567453        -9.56779823        -152.564106
          34000000       -16.0568979         6.18357407         21.4055339         167.776596        -27.6499161        -5.19671896        -9.43443433        -152.627537
          35000000       -16.0457477         8.48776358         21.4073333         167.486443        -27.6992367        -5.55126606        -9.31544523        -152.656165
          36000000       -15.9250633         10.1815285         21.3890471         167.197936        -27.7276229        -5.90380242        -9.16503424        -152.692651
          37000000        -15.717392         11.2225532         21.3506373          167.03055        -27.7716027        -6.37989972        -9.03461953         -152.93704
          38000000       -15.5210811         12.2113137         21.3100172         166.819697        -27.8200528        -6.84009437        -8.91237886        -153.128824
          39000000       -15.3308817         13.1873959         21.2717536         166.600345        -27.8748364        -7.22058549        -8.79518842        -153.366992
          40000000       -15.1512031           14.09942         21.2363447         166.394177        -27.9291153        -7.64624268        -8.67095946        -153.565538
          41000000       -14.9682458         14.9461686         21.2000972          166.17371        -27.9855128        -7.99032954        -8.55647318        -153.780419
          42000000        -14.787937         15.7554353         21.1629225         165.960225        -28.0427375        -8.33306481        -8.44134644        -154.034553
          43000000       -14.6076566         16.4259243         21.1251874         165.730616        -28.0987926        -8.73045443        -8.32819305        -154.297564
          44000000       -14.4238523         17.0120303         21.0833212         165.517765        -28.1574588        -9.05311522        -8.21738184        -154.580422
          45000000        -14.217892         17.1488988         21.0493068         165.081939        -28.2200632        -9.95762057        -8.10512458        -155.215502
          46000000       -14.0153573         17.5426789          20.995678         164.879532         -28.278362         -10.198088        -8.00065674        -155.553915
          47000000       -13.8291402         17.8848043         20.9490252         164.689589        -28.3464748        -10.5678308          -7.894243        -155.894368
          48000000       -13.6413305         17.9946213         20.8981889         164.477514        -28.4076811        -10.6760865        -7.79307786        -156.235945
          49000000       -13.4454496         18.1248179         20.8445394         164.300805        -28.4734206        -11.0335852        -7.69328774        -156.566189
          50000000       -13.1708111         18.0510328         20.7638332         164.048246        -28.5354368        -11.2568844        -7.59591106        -156.940962
          51000000       -13.0556132         17.9395994         20.7183564         163.991079        -28.6066536         -11.442701        -7.50086165        -157.337096
          52000000       -12.8533517         17.6868147         20.6488619         163.860973        -28.6877081         -11.678637        -7.40934038        -157.706131
          53000000       -12.6494951         17.4074631          20.577217          163.74972         -28.761643        -11.8789095        -7.32076776        -158.110699
          54000000       -12.4551777         17.0254787          20.498591         163.657402         -28.842389        -12.0360976        -7.23493849        -158.519232
          55000000       -12.2580753         16.5524321         20.4189517         163.581722        -28.9093383        -12.1035382        -7.14646447        -158.928462
          56000000       -12.0593836         16.0665167         20.3366351         163.510037        -28.9918649        -12.3370227        -7.06572497        -159.401764
          57000000       -11.8752382         15.5358085         20.2516567         163.450855        -29.0688933        -12.4184448         -6.9849387        -159.849842
          58000000       -11.6869141         14.9984708         20.1641963          163.43864        -29.1401537        -12.4023699        -6.90948486        -160.276165
          59000000       -11.5131125         14.4110774         20.0784603         163.417992        -29.2277897        -12.5300083        -6.83202751        -160.743728
          60000000       -11.3428425         13.8691813         19.9909783         163.421308        -29.2981317        -12.5828323        -6.76164681        -161.220649
          61000000       -11.1882329         13.3264225         19.9108069         163.425225        -29.3877631         -12.668165        -6.68693276        -161.678683
          62000000       -11.0490606         12.8652665         19.8331088         163.423575        -29.4680012        -12.6751247         -6.6221412         -162.17222
          63000000       -10.9196461         12.4126223         19.7608811         163.423091        -29.5466989        -12.6197294        -6.55387137        -162.658946
          64000000       -10.8006064          12.008435          19.692924         163.425026         -29.630696        -12.6047441        -6.49164721        -163.154573
          65000000       -10.7039982         11.7035009         19.6360771         163.431783        -29.7053329        -12.4594067        -6.43079922        -163.655155
          66000000       -10.6136863         11.3920418          19.584632         163.419505         -29.789638        -12.4029051        -6.36917275         -164.12254
          67000000       -10.5438156         11.1592528         19.5438894         163.405396        -29.8742906        -12.2972943        -6.31307067        -164.628265
          68000000        -10.486597         10.9773582         19.5081868         163.398293        -29.9556732         -12.168967        -6.25919704        -165.148154
          69000000        -10.450448         10.8673111         19.4819989          163.38653        -30.0448511        -11.9653202        -6.20823345        -165.643843
          70000000       -10.4242773         10.6959036         19.4613631         163.429873        -30.1099769        -11.8027471        -6.15820594        -166.162888
          71000000       -10.4044866         10.5430788          19.445982         163.465467         -30.187808        -11.5962834        -6.11038746        -166.672682
          72000000       -10.3958332         10.3767171         19.4365762         163.541617        -30.2547138         -11.374343        -6.06383948        -167.165244
          73000000       -10.4066556         10.1955599         19.4303672         163.610071        -30.3353528        -11.2370889        -6.02148314        -167.703705
          74000000       -10.4202199         9.98212524         19.4279397         163.723753        -30.4126403        -10.8450869        -5.98180717        -168.225587
          75000000       -10.4408362         9.70079351         19.4291363         163.873351        -30.4836737        -10.6913388        -5.94280948        -168.737634
          76000000       -10.4658792         9.37273666         19.4317678         164.065417        -30.5422522        -10.2773727        -5.90428726         -169.25808
          77000000       -10.4914769         8.96248224          19.430999         164.269062         -30.621261        -9.86812812        -5.87109919        -169.774027
          78000000       -10.5100949         8.44339563         19.4285589         164.525777        -30.6740111        -9.56492342        -5.83872952        -170.299832
          79000000       -10.5252399         7.83853319          19.416729         164.846719         -30.740261        -9.17186126        -5.80966583        -170.789672
          80000000       -10.5213793         7.12292449         19.3985659         165.193079        -30.8018341        -8.78344063        -5.78173235        -171.323247
          81000000       -10.4951302         6.30098952         19.3701415          165.55666        -30.8563685        -8.43481952        -5.75564061        -171.828636
          82000000       -10.4533201         5.46000497         19.3309266         165.941552        -30.9035034        -7.96979793        -5.73176815        -172.334711
          83000000       -10.3944573         4.56597117         19.2864082         166.331404        -30.9611818        -7.57762599        -5.70993913        -172.853327
          84000000       -10.3276166         3.63448319         19.2375135          166.72284        -31.0086365        -7.14808979        -5.68795685        -173.396497
          85000000       -10.2538352         2.77441857         19.1854911         167.125193        -31.0504189        -6.70436652        -5.67117579        -173.855468
          86000000       -10.1831786          1.8813888          19.138266         167.519965         -31.095794        -6.17097457        -5.65159797        -174.368217
          87000000       -10.1153668          1.0093434         19.0875555         167.930288        -31.1357345        -5.70015218        -5.63575899        -174.858688
          88000000       -10.0475148        0.157961158          19.042802         168.340893         -31.158128        -5.21174707        -5.62012879        -175.354294
          89000000       -9.98065444        -0.67470996         19.0009613         168.768158        -31.1951587        -4.71124195        -5.60807956        -175.841916
          90000000       -9.92498586        -1.50323671         18.9613188         169.179063        -31.2172212        -4.17953735        -5.59457775         -176.32621
          91000000       -9.87377675        -2.33079727          18.925309         169.600176         -31.241071        -3.77181396        -5.58566533        -176.783134
          92000000       -9.82452534        -3.14044212         18.8951551         170.014705        -31.2628649        -3.32090469        -5.57532451        -177.312312
          93000000        -9.7809668        -3.90758519         18.8634931         170.464151        -31.2804969        -2.76370344        -5.57054168        -177.751629
          94000000       -9.74217177        -4.70879592         18.8412835         170.853963        -31.2902265        -2.28575291        -5.56377072         -178.23037
          95000000       -9.70403276        -5.49098917         18.8214673         171.261809        -31.2950927        -1.72940082        -5.55658978        -178.722795
          96000000       -9.67813665        -6.22166683         18.8012162         171.722009        -31.3011638        -1.28711428        -5.55272704        -179.158917
          97000000       -9.65352182        -6.98224469         18.7862066         172.129384        -31.3100234       -0.797827949        -5.55033411        -179.610616
          98000000       -9.63009621         -7.7116705         18.7777739         172.539435        -31.3079561       -0.259968216        -5.54726804         179.936286
          99000000       -9.61166998        -8.47357879         18.7687621         172.935847        -31.3031479       0.0984655529        -5.54745428         179.460924
         100000000        -9.5974355        -9.17478374         18.7629696         173.350109        -31.2926304        0.705005968        -5.54889533         179.038325
         101000000       -9.58669507        -9.91517553         18.7607616         173.751235        -31.2844584           1.011056        -5.54926846          178.57738
         102000000       -9.57586363         -10.597247         18.7613481         174.171822        -31.2803219         1.46468302        -5.55364134         178.176257
         103000000        -9.5707075        -11.3113639         18.7640636         174.553173        -31.2662664         1.95709121        -5.55578981         177.746914
         104000000       -9.56486585        -12.0274207         18.7707234         174.925673        -31.2641266         2.41633173         -5.5588496         177.329938
         105000000       -9.56098084        -12.7169508         18.7752541         175.310368        -31.2367459         2.83027624        -5.56681109         176.914198
         106000000       -9.55752983        -13.4128385         18.7854643         175.676023        -31.2112157         3.20011916        -5.57097661         176.470094
         107000000       -9.55700241        -14.0837731         18.7967893         176.045945        -31.1972107         3.60976043        -5.57910069         176.096097
         108000000       -9.55789749        -14.7532618         18.8083515         176.399622        -31.1750185         4.05251805        -5.58736997         175.688995
         109000000       -9.55873317        -15.4153362         18.8211972         176.755656        -31.1457428         4.37726778        -5.59480152         175.297981
         110000000       -9.55689317        -16.0972272         18.8378139         177.086929        -31.1248261         4.73783653        -5.60410507         174.910805
         111000000       -9.56058996        -16.7426954           18.85369          177.44574           -31.0996         5.10975387         -5.6135943         174.513839
         112000000       -9.55896464        -17.4013929         18.8709357          177.76616        -31.0762343         5.43548105        -5.62524949         174.123399
         113000000       -9.55953018         -18.051139          18.887528          178.10233         -31.048662         5.80798826        -5.63737663         173.738266
         114000000        -9.5589428        -18.6929056         18.9061956         178.424159        -31.0055244         6.05876375        -5.64939386         173.384974
         115000000       -9.55759255        -19.3457615         18.9251091         178.738406        -30.9821709         6.37467602        -5.66351954         173.011549
         116000000       -9.55371713         -19.983074         18.9450692         179.036061        -30.9533208         6.68869294        -5.67651614         172.637959
         117000000       -9.55185841        -20.5954202         18.9652988         179.337752        -30.9178912         6.98947617        -5.68957158         172.263818
         118000000       -9.54605796         -21.239799         18.9855974         179.613248        -30.8837126         7.21407298        -5.70318341         171.864151
         119000000        -9.5449942        -21.8376527         19.0048221         179.920045        -30.8559379         7.56852585        -5.71874813         171.543064
         120000000       -9.53760939        -22.4721085         19.0270336        -179.827654        -30.8135064         7.76752764        -5.73374301           171.1612
         121000000       -9.53145141        -23.0517815         19.0494121        -179.532451        -30.7833579         8.09606427        -5.75084035         170.834911
         122000000       -9.52355638        -23.6590612         19.0715016        -179.280367        -30.7505884         8.27048057        -5.76931228         170.508189
         123000000       -9.52065562        -24.2284047         19.0912568        -179.011148        -30.7133732         8.53853418        -5.78533765         170.150106
         124000000       -9.51414692        -24.8013201         19.1133639        -178.762323        -30.6812661         8.70338496        -5.80139723         169.816945
         125000000       -9.50499706        -25.3944713         19.1357544        -178.537689        -30.6459156         8.92635263        -5.82372031         169.491549
