!Mini-Circuits Laboratory
!S-Parameters
!Model: LEE2-6+
!Run / Lot / Date Code: N/A / N/A / N/A
!Fixture: TB-621+ DC 1602
!Network Analyzer: PNA-X N5242A - 423 4 ports;  Serial number: 71404
!Date: 4/12/2016 at 7:57:23 AM
!S/N: Unit# 1
!Tested with: 
!
# Hz  S  dB  R  50
!Frequency    S11 dB        S11 Deg       S21 dB        S21 Deg       S12 dB        S12 Deg       S22 dB        S22 Deg       
10000000      -13.6460900   0.6271535     19.3355100    178.3537000   -21.7928800   0.2362013     -12.3076900   0.6013125     
20000000      -13.5999900   -1.7849110    19.3638700    178.0121000   -21.9716800   -0.5796827    -13.4008000   -1.8497810    
30000000      -13.5604500   -3.2217940    19.3575000    177.0996000   -21.9712000   -1.1201810    -13.3789100   -3.1150120    
40000000      -13.4711800   -4.6147420    19.3278100    176.2708000   -21.9959400   -1.8153230    -13.4787300   -5.3058840    
50000000      -13.3329200   -6.4813040    19.2982300    175.4319000   -22.0460700   -2.0068810    -13.8448100   -7.1496540    
60000000      -13.5563800   -7.0289790    19.3170800    174.6487000   -21.9978200   -2.8930440    -13.8048700   -6.9867460    
70000000      -13.5368200   -7.5775250    19.3125700    173.6391000   -21.9700100   -3.4514220    -13.5446700   -7.9898330    
80000000      -13.4777100   -8.7562280    19.2991200    172.7287000   -21.9563500   -4.0687100    -13.4182100   -9.8507370    
90000000      -13.4671400   -9.8184180    19.2839400    171.8116000   -21.9388200   -4.5482790    -13.3689000   -11.0484400   
100000000     -13.4661500   -10.7930500   19.2829400    170.8737000   -21.9386500   -5.2294810    -13.3244800   -12.9815700   
150000000     -13.4870100   -16.0584600   19.2650000    166.4100000   -21.9857300   -7.7598400    -13.5670000   -19.3521100   
200000000     -13.4552200   -21.2249800   19.2465500    161.8237000   -21.9347700   -10.1569600   -13.3058900   -24.8851900   
250000000     -13.3948600   -26.9323000   19.2345800    157.4093000   -21.9705200   -12.6912400   -13.4986400   -31.1163800   
300000000     -13.4022400   -31.7613400   19.2073000    152.7901000   -21.9501100   -14.9151100   -13.3862900   -35.8666500   
350000000     -13.3835300   -37.1449900   19.1902000    148.3149000   -21.9581800   -17.4755000   -13.3691900   -42.0636500   
400000000     -13.3589900   -41.8415300   19.1655400    143.8031000   -21.9189200   -19.7373300   -13.2504000   -46.0072300   
450000000     -13.2839500   -46.9211000   19.1352600    139.3182000   -21.9305600   -22.3034500   -13.3105000   -52.2078400   
500000000     -13.2473600   -52.0056800   19.1002400    134.9498000   -21.8722500   -24.8255700   -12.9925300   -57.5227800   
550000000     -13.1844600   -57.0356300   19.0568700    130.4846000   -21.8746700   -27.4494100   -13.0129600   -64.0181000   
600000000     -13.1908500   -62.0427300   19.0342100    126.0166000   -21.8953300   -29.9158100   -13.0980700   -69.8044000   
650000000     -13.0734400   -66.7040000   18.9747100    121.5575000   -21.8154400   -32.3724500   -12.7408800   -74.2147100   
700000000     -12.9466200   -71.7601000   18.9043300    117.1721000   -21.8005600   -34.8527300   -12.6947600   -79.5746800   
750000000     -12.9016400   -76.6283500   18.8754100    112.7905000   -21.7722900   -37.2991100   -12.5955200   -84.3869900   
800000000     -12.8195800   -81.3799900   18.8232000    108.3772000   -21.7689000   -39.8139000   -12.5741500   -89.9059800   
850000000     -12.7748200   -86.3141400   18.7847700    104.0813000   -21.7267300   -42.1818400   -12.4994500   -94.1558300   
900000000     -12.6983500   -90.9041100   18.7318800    99.6231300    -21.7000900   -44.7095100   -12.4105600   -99.1819200   
950000000     -12.6024000   -95.3111600   18.6685300    95.3393400    -21.6864200   -47.2359700   -12.3667400   -104.4581000  
1000000000    -12.4815400   -100.4124000  18.6134000    91.1029900    -21.6227700   -49.7820100   -12.1628100   -108.6124000  
1050000000    -12.4071900   -104.7456000  18.5462600    86.7894400    -21.6352400   -52.5891000   -12.0971500   -115.1965000  
1100000000    -12.3528200   -109.7330000  18.4989500    82.5368400    -21.5855200   -55.1032000   -11.9758200   -119.4428000  
1150000000    -12.2770400   -113.3867000  18.4174900    78.0650600    -21.5096200   -57.4801800   -11.7971100   -122.6114000  
1200000000    -12.1800000   -118.2548000  18.3621200    73.9318700    -21.5288900   -60.0602400   -11.8695500   -128.2521000  
1250000000    -12.1052300   -122.3435000  18.2925600    69.6175200    -21.4225500   -62.5893600   -11.5843400   -131.4617000  
1300000000    -12.0157300   -127.0864000  18.2371900    65.4067200    -21.4611800   -65.1849700   -11.7282800   -137.3824000  
1350000000    -11.9471400   -130.9188000  18.1640300    61.0730900    -21.3926700   -67.8336000   -11.5356700   -141.4780000  
1400000000    -11.8448800   -135.5006000  18.0910200    56.9107400    -21.3132200   -70.4474800   -11.3508300   -145.0018000  
1450000000    -11.7513800   -140.0295000  18.0265100    52.8392000    -21.3808000   -72.9163700   -11.5739300   -151.0808000  
1500000000    -11.6749000   -144.2225000  17.9588900    48.6443100    -21.3030600   -75.7023200   -11.3332600   -155.1202000  
1550000000    -11.5894900   -148.2235000  17.8701000    44.4643100    -21.2745500   -78.1849200   -11.3392200   -159.1932000  
1600000000    -11.4423200   -152.6541000  17.7950500    40.4413300    -21.1986500   -80.8670500   -11.1688400   -162.7732000  
1650000000    -11.3948600   -156.7244000  17.7361600    36.2596900    -21.2729400   -83.4399200   -11.3627800   -169.1437000  
1700000000    -11.3110100   -160.6039000  17.6494600    32.0732100    -21.1314200   -86.1045400   -11.0773200   -171.1240000  
1750000000    -11.2119000   -164.5945000  17.5655400    28.0217700    -21.0733400   -88.5733000   -11.0434200   -174.7970000  
1800000000    -11.1747500   -168.6503000  17.4985200    23.8712400    -21.1142800   -91.2124600   -11.1539900   179.6985000   
1850000000    -11.1353400   -172.2847000  17.4069300    19.6469000    -20.9963000   -93.9764700   -10.8982900   176.9725000   
1900000000    -11.0106400   -176.6562000  17.3396800    15.7042300    -21.0153400   -96.4358700   -11.0741600   172.2304000   
1950000000    -10.9085400   179.2712000   17.2594000    11.6675400    -20.9178900   -99.0843800   -10.9372300   169.2757000   
2000000000    -10.8637100   175.3203000   17.1905000    7.6475180     -20.9318200   -101.7329000  -10.9641200   164.2525000   
2050000000    -10.8155200   171.4882000   17.1074700    3.6043460     -20.8734800   -104.3168000  -10.9305900   160.7401000   
2100000000    -10.6946100   167.0918000   17.0356600    -0.2015345    -20.7671000   -107.2825000  -10.6945500   157.4721000   
2150000000    -10.6454800   163.5704000   16.9434200    -4.3756210    -20.7609900   -109.7815000  -10.8055000   153.3334000   
2200000000    -10.5513400   159.3893000   16.8786900    -8.1494970    -20.7823500   -112.6454000  -10.7757800   148.0114000   
2250000000    -10.5321500   155.9928000   16.7787100    -12.3961800   -20.6402000   -115.2196000  -10.6550700   146.3827000   
2300000000    -10.4417200   152.2688000   16.6861400    -16.3245600   -20.5234900   -118.1236000  -10.4481700   143.5686000   
2350000000    -10.4131900   148.2197000   16.6300900    -20.3090200   -20.6307500   -120.6954000  -10.6990700   137.1352000   
2400000000    -10.3253600   144.9529000   16.5175900    -24.2865100   -20.4954600   -123.8276000  -10.3695000   134.6023000   
2450000000    -10.2773800   140.5161000   16.4695500    -28.0727200   -20.5449100   -126.2004000  -10.6163200   129.5381000   
2500000000    -10.2173900   136.9241000   16.3774100    -32.0763700   -20.3973100   -129.1826000  -10.3640400   127.3832000   
2550000000    -10.1580000   132.6674000   16.3234200    -35.8464300   -20.4979000   -131.8234000  -10.5863200   120.9976000   
2600000000    -10.1684600   129.2930000   16.2336700    -40.0045800   -20.3065000   -134.7691000  -10.3095000   120.0380000   
2650000000    -10.0555000   125.1060000   16.1605200    -43.6612300   -20.3802100   -137.3804000  -10.5100700   114.2178000   
2700000000    -9.9984170    121.5763000   16.0673000    -47.6681300   -20.2680800   -140.2548000  -10.3681100   111.7936000   
2750000000    -9.9164520    117.9946000   15.9728200    -51.4041700   -20.2708400   -143.1008000  -10.3885300   107.0938000   
2800000000    -9.9523550    114.1560000   15.9116900    -55.4674800   -20.2175300   -145.7414000  -10.4126700   103.7440000   
2850000000    -9.8422080    110.4734000   15.8128300    -59.2362400   -20.1152300   -148.7054000  -10.2916000   101.0358000   
2900000000    -9.8446090    106.7351000   15.7507300    -63.2056100   -20.1593000   -151.3247000  -10.4489600   96.0348400    
2950000000    -9.8174420    103.0951000   15.6610300    -67.1203400   -20.0155800   -154.3836000  -10.2433900   93.9078400    
3000000000    -9.7352310    98.7643500    15.6090800    -70.7004400   -20.1363800   -156.9317000  -10.4886500   87.5193700    
3050000000    -9.7134150    95.6254000    15.5063200    -74.7232500   -19.9535100   -160.0967000  -10.2131100   86.0939900    
3100000000    -9.6771890    91.5855600    15.4425000    -78.4248600   -20.0297300   -162.7033000  -10.4172100   80.5050400    
3150000000    -9.6836150    88.2032800    15.3527700    -82.4576400   -19.8774500   -165.6270000  -10.2965800   78.9685400    
3200000000    -9.5565290    84.4510000    15.2410700    -86.1009100   -19.9036400   -168.5344000  -10.3462900   74.0035300    
3250000000    -9.5981460    80.7348600    15.2011100    -90.0235600   -19.8803500   -171.5215000  -10.2858000   70.0066800    
3300000000    -9.4479920    76.5377300    15.1132700    -93.4597900   -19.7958000   -174.7199000  -10.1334400   66.9260600    
3350000000    -9.5158460    73.1825100    15.0388500    -97.5633500   -19.7556100   -177.2015000  -10.2735100   63.5468100    
3400000000    -9.5056840    69.8928500    14.9572600    -101.5024000  -19.7413200   179.7453000   -10.2274900   59.3555300    
3450000000    -9.4559200    65.6968900    14.8890200    -105.0630000  -19.7202000   176.9043000   -10.2756500   55.5527300    
3500000000    -9.4237840    62.7755200    14.7702100    -109.1808000  -19.5657500   173.8168000   -10.1290000   53.8829200    
3550000000    -9.3486850    57.7879600    14.7450700    -112.4235000  -19.7453200   171.7040000   -10.5485100   46.8877900    
3600000000    -9.3162450    54.6773400    14.6355000    -116.3458000  -19.5527700   168.2968000   -10.2972900   45.7184600    
3650000000    -9.2537260    50.9972000    14.5542900    -120.0509000  -19.5069700   165.1274000   -10.1812500   42.2020900    
3700000000    -9.2982220    47.0201900    14.5081700    -123.9367000  -19.4240400   162.2188000   -10.1871300   39.0875500    
3750000000    -9.1954870    43.9871100    14.3702100    -127.6231000  -19.5098200   159.7039000   -10.3945700   33.8259800    
3800000000    -9.2671560    39.5212000    14.3574700    -131.4055000  -19.5458300   156.9412000   -10.4975600   29.0725900    
3850000000    -9.1892540    36.3893700    14.2433700    -135.1750000  -19.2926100   153.3061000   -10.1532000   28.9136100    
3900000000    -9.1557150    31.7155200    14.2168900    -138.6483000  -19.4440700   151.2981000   -10.5766500   22.3296500    
3950000000    -9.1501400    29.7784800    14.0404900    -142.9551000  -19.2414400   147.4414000   -10.2099400   21.4387900    
4000000000    -9.1059070    24.6864600    14.0504300    -146.1891000  -19.4243800   145.2949000   -10.5390700   14.4706900    
4050000000    -9.0615520    21.3547200    13.9394900    -150.0100000  -19.1794900   141.3038000   -10.1651100   14.1654500    
4100000000    -8.9708040    17.0386500    13.8870000    -153.3847000  -19.3745000   139.5927000   -10.6526800   7.0748940     
4150000000    -9.0500650    13.4162900    13.8305600    -157.4942000  -19.2683200   136.0228000   -10.4520700   4.6231190     
4200000000    -8.8985630    10.1624900    13.6844500    -160.9123000  -19.2294900   132.9598000   -10.4077100   1.3128400     
4250000000    -9.1108120    6.5217610     13.6688700    -165.1725000  -19.1934000   130.1509000   -10.4698500   -2.3078520    
4300000000    -8.8350100    2.4097140     13.5552900    -168.2029000  -19.1810100   127.0367000   -10.4398700   -6.0237300    
4350000000    -8.9440880    -1.3615340    13.5263100    -172.2209000  -19.2163300   124.5947000   -10.6508200   -10.6572000   
4400000000    -8.8576460    -5.0227430    13.4178000    -175.7149000  -19.1283800   120.7756000   -10.3753400   -13.1420700   
4450000000    -8.8711870    -8.8220830    13.3671700    -179.4628000  -19.1088300   118.5108000   -10.6077000   -16.8823200   
4500000000    -8.8543430    -12.4692200   13.2859600    176.7310000   -19.1212500   115.3796000   -10.6011300   -21.0837300   
4550000000    -8.7075050    -16.8368500   13.2173900    173.5991000   -19.1659400   112.9236000   -10.7825900   -25.7152000   
4600000000    -8.7940250    -19.7200900   13.1189100    169.4222000   -19.0354700   109.1456000   -10.5546200   -27.7120800   
4650000000    -8.7158830    -24.3994800   13.0880800    166.0874000   -19.0867800   106.4355000   -10.6440800   -32.2280200   
4700000000    -8.7555880    -26.9335600   12.9736600    161.9710000   -19.0256300   103.4468000   -10.6583600   -35.3118900   
4750000000    -8.7407320    -31.1731000   12.9204000    158.4619000   -19.0978500   100.5327000   -10.6842800   -40.2480400   
4800000000    -8.6199610    -35.4937300   12.8630400    155.1323000   -19.0652800   97.9274300    -10.8224000   -43.7749700   
4850000000    -8.5745670    -38.4903400   12.7366100    151.3597000   -19.0382200   94.6388000    -10.7444400   -47.1329600   
4900000000    -8.6532600    -43.1841000   12.7568600    147.7909000   -19.0556800   92.3708000    -10.9722900   -51.4299100   
4950000000    -8.6015330    -46.5275300   12.6462900    143.9907000   -18.9750200   88.8610500    -10.8413100   -54.0694600   
5000000000    -8.5817200    -50.8379900   12.6109700    140.4604000   -19.0394900   86.3770600    -10.9758800   -58.9636600   
5050000000    -8.4928060    -53.6904600   12.4612700    136.8627000   -18.9111400   82.4024700    -10.7366000   -60.4986700   
5100000000    -8.4579460    -57.9767400   12.4121100    133.3660000   -19.0726500   80.7393000    -11.0898200   -67.0376500   
5150000000    -8.4564900    -61.1066300   12.3288800    129.5054000   -18.9146700   76.6973100    -10.8657500   -68.1073200   
5200000000    -8.4874930    -65.4668100   12.3053200    125.9259000   -19.0277500   74.9442800    -11.1634400   -74.1619600   
5250000000    -8.4436470    -69.3168800   12.2288300    122.3649000   -18.8834100   71.0546100    -10.9814300   -75.3147000   
5300000000    -8.3662340    -72.3541800   12.1014600    118.6938000   -18.9307100   68.6197500    -11.1392200   -80.0094000   
5350000000    -8.4113050    -76.3724200   12.0831400    115.0213000   -18.9500000   65.6642800    -11.1100100   -83.8453900   
5400000000    -8.3108770    -80.5352000   12.0023400    111.6630000   -18.9270900   62.5082300    -11.0896100   -87.2593300   
5450000000    -8.3589540    -83.9027700   11.9411800    107.8440000   -18.8947800   59.6139900    -11.1574300   -90.4872300   
5500000000    -8.3244590    -88.2821700   11.8919700    104.3801000   -18.9179600   57.1378100    -11.2799000   -94.8665500   
5550000000    -8.2045040    -91.1978900   11.7565700    100.7716000   -18.9179500   54.3776400    -11.3277000   -98.7677400   
5600000000    -8.2344240    -94.8200300   11.7063100    97.0621400    -18.8696700   50.7023300    -11.1686300   -101.1084000  
5650000000    -8.1549300    -98.7613500   11.6282100    93.7465700    -18.8385400   47.5937800    -11.1748700   -104.1573000  
5700000000    -8.1743960    -102.5920000  11.5855500    89.9709100    -18.8720600   44.9778000    -11.2365200   -108.5596000  
5750000000    -8.1902280    -106.0213000  11.5109500    86.1867500    -18.8830800   41.7847300    -11.1696400   -112.0711000  
5800000000    -8.1558340    -109.9117000  11.4612300    82.7810300    -18.8904100   39.2319000    -11.2695200   -116.0029000  
5850000000    -8.0741930    -112.9566000  11.3427800    79.0448900    -18.8280100   35.7113800    -11.1934300   -118.3985000  
5900000000    -8.0879620    -117.3028000  11.3197200    75.6392000    -18.9021200   33.9484100    -11.4212800   -123.8785000  
5950000000    -8.0318710    -121.1645000  11.2504900    72.1102000    -18.8257800   29.7043900    -11.1829200   -125.4031000  
6000000000    -7.9918110    -124.9877000  11.1843800    68.5748100    -18.8379300   27.1537600    -11.2592000   -129.5262000  
6050000000    -8.0388870    -128.4701000  11.1114400    64.7744900    -18.8442600   23.9755400    -11.2213600   -132.8217000  
6100000000    -7.9133740    -132.2960000  11.0376800    61.4652800    -18.9194500   22.1534300    -11.3885500   -138.2889000  
6150000000    -7.9110580    -135.5815000  10.9563700    57.7999800    -18.8782100   18.4794600    -11.2656000   -140.4793000  
6200000000    -7.8636310    -139.4318000  10.8922100    54.3067500    -18.8721900   15.6698900    -11.2903900   -144.0732000  
6250000000    -7.8670130    -142.8322000  10.8299400    50.5761800    -18.8570700   12.3317900    -11.2078900   -146.9490000  
6300000000    -7.8465480    -146.3488000  10.7550600    46.9096300    -18.8775100   9.5429490     -11.2141800   -150.8927000  
6350000000    -7.8019760    -150.3729000  10.7068000    43.4222500    -18.8997300   6.6527140     -11.1917100   -154.6536000  
6400000000    -7.7494000    -154.0498000  10.6250900    40.0274700    -18.9254500   3.6675960     -11.1655400   -158.1724000  
6450000000    -7.6860560    -158.0590000  10.5719500    36.5829100    -18.9298900   1.1508040     -11.2263900   -162.1824000  
6500000000    -7.7076060    -161.2368000  10.5024300    32.8550100    -18.9251500   -1.7683620    -11.2167300   -165.5066000  
6550000000    -7.6626470    -165.0104000  10.4313100    29.3832900    -18.9416200   -4.5297470    -11.2313700   -169.2663000  
6600000000    -7.6633960    -168.1886000  10.3560800    25.5899500    -18.8856600   -8.0935520    -11.1611800   -171.4426000  
6650000000    -7.5427850    -172.1961000  10.2846500    22.4340200    -18.9556900   -10.6228600   -11.1485100   -175.7903000  
6700000000    -7.5067360    -175.5241000  10.2071600    18.8449600    -18.9312800   -13.8488100   -11.1113700   -178.5342000  
6750000000    -7.4875200    -179.1236000  10.1322300    15.2866900    -18.9929100   -16.3796800   -11.1119400   177.1521000   
6800000000    -7.5498720    177.2233000   10.1032800    11.5115100    -18.9697900   -19.5485000   -11.0843000   174.3087000   
6850000000    -7.4533390    173.8291000   10.0050900    8.0997600     -18.9920000   -21.9145900   -11.1414600   170.1907000   
6900000000    -7.4667350    169.8916000   9.9561650     4.5377000     -18.9874500   -24.6546200   -11.1460400   166.5708000   
6950000000    -7.3606920    166.5686000   9.8640850     1.0619120     -18.9960100   -28.1417900   -11.0261000   163.9395000   
7000000000    -7.3899760    162.5462000   9.8497730     -2.4449910    -19.0060000   -30.5785200   -11.0651800   159.9805000   
7050000000    -7.3175390    159.2770000   9.7370560     -5.9382070    -19.0278300   -33.8455700   -10.9761000   157.0445000   
7100000000    -7.3123050    155.7083000   9.6936190     -9.5391450    -19.0547600   -35.8879000   -11.0512700   152.4570000   
7150000000    -7.2259140    152.2285000   9.5894760     -12.9890200   -19.0671200   -39.4251700   -10.9282600   149.8312000   
7200000000    -7.2007350    148.6379000   9.5359390     -16.5147100   -19.0624700   -41.9272500   -10.9592400   146.1945000   
7250000000    -7.2007440    144.8948000   9.4891070     -20.0255400   -19.0727100   -45.0712000   -10.9012000   143.1717000   
7300000000    -7.1445390    141.1807000   9.4215150     -23.3912100   -19.0962900   -47.9292400   -10.8599600   139.7230000   
