!Mini-Circuits Laboratory
!S-Parameters
!Model: LEE2-6+
!Run / Lot / Date Code: N/A / N/A / N/A
!Fixture: TB-621+ DC 1602
!Network Analyzer: PNA-X N5242A - 423 4 ports;  Serial number: 71404
!Date: 4/12/2016 at 7:58:06 AM
!S/N: Unit# 1
!Tested with: 
!
# Hz  S  dB  R  50
!Frequency    S11 dB        S11 Deg       S21 dB        S21 Deg       S12 dB        S12 Deg       S22 dB        S22 Deg       
10000000      -21.3787100   176.0851000   22.8122600    178.1391000   -24.7122500   0.7343065     -19.3031200   176.4431000   
20000000      -20.8793300   178.5674000   22.8022400    177.8581000   -24.7491100   -0.2439231    -18.7160100   177.8936000   
30000000      -21.0390500   179.0462000   22.8043700    176.8387000   -24.7727400   -0.8760505    -18.5411000   178.8036000   
40000000      -21.0910700   179.5809000   22.7895200    175.8881000   -24.7836400   -1.5347450    -18.4520600   179.6835000   
50000000      -21.0631000   178.2598000   22.7397000    174.9158000   -24.8015200   -2.1636850    -18.0490300   -178.4913000  
60000000      -21.0178100   177.2204000   22.7561100    174.2352000   -24.7829200   -2.7954170    -18.1522300   178.6456000   
70000000      -21.0629100   176.5504000   22.7579400    173.1603000   -24.7662000   -3.2781870    -18.3539600   178.8062000   
80000000      -21.1049100   175.9889000   22.7552000    172.1704000   -24.7622200   -3.8309150    -18.4086600   179.5557000   
90000000      -21.0932500   175.8440000   22.7435600    171.1844000   -24.7488400   -4.3637740    -18.4292000   179.9641000   
100000000     -21.0789200   175.0497000   22.7425700    170.1891000   -24.7431900   -4.9603210    -18.4505300   -179.5377000  
150000000     -21.1322900   172.7797000   22.7103200    165.3385000   -24.7717300   -7.3799390    -18.1313200   -179.7952000  
200000000     -21.2381600   170.1035000   22.6853500    160.5044000   -24.7535600   -9.6459430    -18.1227900   179.8777000   
250000000     -21.3035400   168.2698000   22.6560500    155.6789000   -24.7832800   -11.9933700   -17.7774400   178.7100000   
300000000     -21.3572800   165.5527000   22.6115300    150.8446000   -24.7657100   -14.1809900   -17.7637100   177.5195000   
350000000     -21.4523500   163.5301000   22.5744700    146.0490000   -24.7752400   -16.5790000   -17.5384700   176.6562000   
400000000     -21.5375300   160.9797000   22.5309300    141.3411000   -24.7495300   -18.7591200   -17.5059600   174.6034000   
450000000     -21.8155500   159.2665000   22.4794900    136.5821000   -24.7471300   -21.1357000   -17.2696400   173.1561000   
500000000     -21.8587100   156.7477000   22.4254500    131.8949000   -24.7248700   -23.5112800   -17.1254900   172.5461000   
550000000     -21.9794600   155.0082000   22.3623800    127.1891000   -24.7369800   -25.9282700   -16.7191900   170.9528000   
600000000     -22.0514000   152.6726000   22.2971200    122.5101000   -24.7289400   -28.2267800   -16.5154900   168.9504000   
650000000     -22.2597300   151.3918000   22.2275400    117.8359000   -24.6918000   -30.5480700   -16.4081600   167.6449000   
700000000     -22.4477600   150.7045000   22.1441200    113.1875000   -24.6688800   -32.8684800   -16.2160500   165.8132000   
750000000     -22.6274800   148.7804000   22.0781400    108.5893000   -24.6570700   -35.1762100   -16.0128800   163.5513000   
800000000     -22.7652900   147.9696000   21.9971400    103.9799000   -24.6516700   -37.4879800   -15.7906300   161.1761000   
850000000     -22.8284500   146.5407000   21.9198400    99.4308900    -24.6183400   -39.7247200   -15.6614700   158.6714000   
900000000     -23.0468500   146.1550000   21.8338100    94.8539300    -24.5945100   -42.0484000   -15.4870200   156.3280000   
950000000     -23.2558700   144.7403000   21.7465800    90.3716800    -24.5721100   -44.4275800   -15.3013700   154.0217000   
1000000000    -23.2652800   145.0376000   21.6586700    85.8967400    -24.5370300   -46.7838600   -15.1590100   151.6212000   
1050000000    -23.4697200   143.9642000   21.5639900    81.4207300    -24.5410400   -49.2486600   -14.8343500   148.9786000   
1100000000    -23.3163700   143.4471000   21.4713200    76.9673300    -24.5050500   -51.5661800   -14.7235800   146.3189000   
1150000000    -23.6481300   142.5569000   21.3728700    72.5154100    -24.4628200   -53.8548100   -14.6581300   143.8476000   
1200000000    -23.5633500   143.1560000   21.2782600    68.1525500    -24.4429900   -56.1921200   -14.5074800   140.8815000   
1250000000    -23.6326700   142.2445000   21.1790000    63.7673400    -24.3931900   -58.5958400   -14.3798300   138.4833000   
1300000000    -23.5082700   142.9079000   21.0794200    59.3896400    -24.3809400   -60.9137000   -14.2204000   135.0857000   
1350000000    -23.6382800   142.6304000   20.9744800    55.0598300    -24.3401700   -63.3238100   -14.0930600   132.4017000   
1400000000    -23.4086000   142.3759000   20.8711600    50.7384500    -24.2879500   -65.7617100   -14.0317800   129.9593000   
1450000000    -23.1724300   142.3184000   20.7670900    46.4814400    -24.2789800   -68.0587800   -13.8737600   126.4579000   
1500000000    -23.0986700   141.7267000   20.6628700    42.2240500    -24.2405400   -70.4826700   -13.7571800   123.5504000   
1550000000    -22.9456300   141.2061000   20.5498800    37.9794100    -24.1937500   -72.8752600   -13.6924800   120.6396000   
1600000000    -22.6906500   141.2471000   20.4477700    33.7857200    -24.1527600   -75.2458700   -13.6164100   117.6499000   
1650000000    -22.5270100   140.7562000   20.3431100    29.5672400    -24.1450900   -77.5723300   -13.4823800   113.9756000   
1700000000    -22.3182700   139.9238000   20.2339500    25.3701800    -24.0754400   -80.1025900   -13.4630100   111.5926000   
1750000000    -22.1055900   138.9226000   20.1220900    21.2268000    -24.0306200   -82.4643100   -13.3828400   108.5764000   
1800000000    -21.9044900   137.6216000   20.0131700    17.0815300    -24.0004300   -84.8174100   -13.3136100   105.1929000   
1850000000    -21.6366100   136.3460000   19.8999900    12.9361900    -23.9444400   -87.3313500   -13.2700900   102.4896000   
1900000000    -21.2614900   135.1710000   19.7891200    8.8350870     -23.9032100   -89.7021100   -13.2419800   99.1295200    
1950000000    -20.9695500   133.7246000   19.6823700    4.7452260     -23.8485500   -92.1399600   -13.1881600   96.0373800    
2000000000    -20.7328200   131.8793000   19.5728700    0.6998930     -23.8071500   -94.5731600   -13.1281400   92.9530200    
2050000000    -20.5599400   130.0033000   19.4614100    -3.3463730    -23.7521800   -96.9940700   -13.0945600   89.9128000    
2100000000    -20.2218700   127.9133000   19.3544400    -7.3432400    -23.6859200   -99.5903700   -13.0439600   87.1281100    
2150000000    -19.9816800   126.1974000   19.2409200    -11.3765000   -23.6505200   -102.0319000  -13.0098500   83.7054800    
2200000000    -19.6977700   123.6460000   19.1380600    -15.3124800   -23.6180200   -104.5196000  -12.9383100   80.4254500    
2250000000    -19.5110200   121.9085000   19.0230800    -19.3761900   -23.5402200   -107.0415000  -12.9752800   77.7135500    
2300000000    -19.2529900   119.5446000   18.9080300    -23.3203400   -23.4728100   -109.6769000  -12.9359000   74.9787100    
2350000000    -19.0444200   117.1064000   18.8085200    -27.2813300   -23.4564000   -112.0680000  -12.8499900   71.2339500    
2400000000    -18.8257600   115.0220000   18.6904800    -31.2187700   -23.3951500   -114.7059000  -12.8304500   68.4087400    
2450000000    -18.5684700   112.0744000   18.5895500    -35.1086600   -23.3504800   -117.1110000  -12.8099300   64.9717900    
2500000000    -18.3497000   109.4499000   18.4806400    -39.0279700   -23.2799200   -119.7635000  -12.7974800   62.1926000    
2550000000    -18.1426000   106.6282000   18.3788800    -42.8882200   -23.2488800   -122.2537000  -12.7407600   58.4862700    
2600000000    -18.0269300   103.8627000   18.2677100    -46.8344500   -23.1781300   -124.9030000  -12.7545400   55.8732100    
2650000000    -17.7336800   100.8592000   18.1642100    -50.6720300   -23.1422900   -127.3638000  -12.7186900   52.1140900    
2700000000    -17.5092300   98.1210900    18.0572700    -54.5521200   -23.0791900   -129.9851000  -12.7147200   49.2359100    
2750000000    -17.3447300   95.6121100    17.9519600    -58.3497900   -23.0380900   -132.5360000  -12.6771500   45.7264600    
2800000000    -17.2254500   92.4560300    17.8449200    -62.2380100   -22.9798000   -135.1260000  -12.6655600   42.7464300    
2850000000    -16.9852600   89.3726300    17.7392500    -66.0237300   -22.9185400   -137.7666000  -12.6745800   39.5736800    
2900000000    -16.8417800   86.5790800    17.6364200    -69.8635600   -22.8738400   -140.3216000  -12.6667300   36.1324800    
2950000000    -16.7019700   83.1757700    17.5325300    -73.6887400   -22.8049600   -143.0008000  -12.6512000   33.2659600    
3000000000    -16.5205900   80.0619600    17.4352300    -77.4312200   -22.7748000   -145.5007000  -12.6110100   29.5668400    
3050000000    -16.3774400   77.1219700    17.3278700    -81.2448800   -22.7058000   -148.2355000  -12.6065000   26.7937000    
3100000000    -16.1968500   73.8829200    17.2301200    -84.9893300   -22.6677400   -150.7956000  -12.5828400   23.0681800    
3150000000    -16.0902700   70.9138100    17.1265300    -88.7969800   -22.6011000   -153.4708000  -12.6065100   20.1591100    
3200000000    -15.9186000   67.4846700    17.0233700    -92.5229400   -22.5593400   -156.0694000  -12.5870400   16.5148800    
3250000000    -15.7772900   64.5286300    16.9320600    -96.2646200   -22.5015000   -158.8678000  -12.5475000   13.6953800    
3300000000    -15.6111700   60.8174600    16.8305200    -99.9653900   -22.4428100   -161.5618000  -12.5465500   10.4913100    
3350000000    -15.5338400   57.8204800    16.7299700    -103.7362000  -22.3873400   -164.1294000  -12.5518700   7.1629410     
3400000000    -15.3892100   54.8464300    16.6334300    -107.4668000  -22.3367000   -166.8423000  -12.5338900   3.8627510     
3450000000    -15.3065600   51.2157800    16.5364700    -111.1490000  -22.2835700   -169.5141000  -12.5286300   0.5276588     
3500000000    -15.1378000   48.1486000    16.4372500    -114.9227000  -22.2247300   -172.2473000  -12.5379200   -2.5544230    
3550000000    -15.0223400   44.2084400    16.3455300    -118.5077000  -22.1891000   -174.7447000  -12.5266300   -6.4179840    
3600000000    -14.9002900   41.0862100    16.2470600    -122.2440000  -22.1152300   -177.5558000  -12.5407600   -9.4097930    
3650000000    -14.7294200   37.6068300    16.1520800    -125.9085000  -22.0610200   179.6886000   -12.5364300   -12.3932900   
3700000000    -14.6578800   34.0153900    16.0658200    -129.6314000  -22.0024500   176.9379000   -12.4983400   -15.7208000   
3750000000    -14.5377000   30.8186300    15.9608500    -133.2503000  -21.9720400   174.3747000   -12.4989100   -19.4302800   
3800000000    -14.4755800   27.1919400    15.8741900    -136.9593000  -21.9225300   171.6561000   -12.4807900   -22.8516800   
3850000000    -14.3478100   23.8798500    15.7800700    -140.6010000  -21.8453600   168.7932000   -12.5061400   -25.6226700   
3900000000    -14.2296600   20.2421600    15.6976100    -144.2210000  -21.8054800   166.2132000   -12.4725600   -29.4730100   
3950000000    -14.1668300   17.3233700    15.5896400    -147.9396000  -21.7470700   163.3377000   -12.4898900   -32.4475900   
4000000000    -14.0518700   13.3242300    15.5139900    -151.5281000  -21.7138400   160.7177000   -12.4417200   -35.9951100   
4050000000    -13.9478300   9.8177050     15.4178500    -155.1799000  -21.6493100   157.7272000   -12.4496400   -38.9314500   
4100000000    -13.8095300   6.2379360     15.3323800    -158.7667000  -21.6181200   155.2652000   -12.4231500   -42.8544500   
4150000000    -13.7284800   2.6957580     15.2465700    -162.4754000  -21.5628900   152.3398000   -12.4127100   -45.9651300   
4200000000    -13.6388400   -0.7451338    15.1461600    -166.0397000  -21.5148100   149.6445000   -12.4121900   -49.2514300   
4250000000    -13.6253100   -4.2978040    15.0630900    -169.7401000  -21.4558100   146.8243000   -12.4009700   -52.4352400   
4300000000    -13.4266900   -7.8535420    14.9789300    -173.2477000  -21.4140000   144.0365000   -12.3843700   -55.7947200   
4350000000    -13.3833700   -11.4248800   14.8961400    -176.9034000  -21.3695900   141.3217000   -12.3637000   -59.3812500   
4400000000    -13.2862100   -15.0453400   14.8013800    179.5416000   -21.3221700   138.4306000   -12.3605100   -62.4212000   
4450000000    -13.2017000   -18.5844900   14.7235500    175.9415000   -21.2749400   135.8106000   -12.3543500   -65.9547300   
4500000000    -13.1179900   -22.2207400   14.6352100    172.2881000   -21.2304200   132.9797000   -12.3326600   -69.4231900   
4550000000    -13.0066700   -25.9353000   14.5505700    168.7975000   -21.1895200   130.2626000   -12.3201700   -72.9325300   
4600000000    -12.9530500   -29.3131300   14.4625700    165.1433000   -21.1307700   127.2876000   -12.2995100   -75.9312300   
4650000000    -12.8157200   -33.3149100   14.3877400    161.5886000   -21.0986300   124.5492000   -12.2821200   -79.3035900   
4700000000    -12.7681700   -36.4616400   14.2999700    157.9563000   -21.0543600   121.7926000   -12.2567200   -82.8081400   
4750000000    -12.7066000   -40.3282200   14.2158700    154.4209000   -21.0113500   118.9185000   -12.2311900   -86.0835300   
4800000000    -12.5815000   -44.1122800   14.1423000    150.8511000   -20.9653200   116.2185000   -12.2179800   -89.6551700   
4850000000    -12.5017800   -47.5061600   14.0521800    147.2705000   -20.9236700   113.3262000   -12.1975200   -92.8903200   
4900000000    -12.4434000   -51.3166800   13.9831800    143.7485000   -20.8770700   110.6228000   -12.1889600   -96.3356100   
4950000000    -12.3467600   -54.9497800   13.8978400    140.1547000   -20.8253300   107.7562000   -12.1715000   -99.5711500   
5000000000    -12.2711300   -58.6928900   13.8215500    136.5921000   -20.7868800   104.9552000   -12.1532500   -102.9770000  
5050000000    -12.2006300   -62.1184600   13.7279600    133.0741000   -20.7405400   102.0340000   -12.1399500   -106.1251000  
5100000000    -12.0922600   -65.9420500   13.6522800    129.5320000   -20.7182000   99.3640300    -12.1040000   -109.9032000  
5150000000    -12.0144800   -69.3062400   13.5745400    125.9624000   -20.6637200   96.3938400    -12.0937900   -112.9042000  
5200000000    -11.9666100   -73.1038100   13.4985000    122.4374000   -20.6214100   93.7300900    -12.0668000   -116.5297000  
5250000000    -11.8673100   -76.8222100   13.4186600    118.8710000   -20.5674100   90.7684100    -12.0709600   -119.5073000  
5300000000    -11.7857700   -80.2860300   13.3301100    115.3252000   -20.5299200   87.9982100    -12.0563300   -123.1197000  
5350000000    -11.7159400   -83.8842500   13.2642300    111.7889000   -20.4914300   85.1528300    -12.0228800   -126.1992000  
5400000000    -11.6440400   -87.7660800   13.1802000    108.2760000   -20.4526300   82.2531100    -11.9865300   -129.5294000  
5450000000    -11.5946300   -91.1592900   13.1073400    104.7650000   -20.4076400   79.4362000    -11.9801500   -132.8843000  
5500000000    -11.5092700   -95.0519700   13.0295000    101.2240000   -20.3675100   76.6444200    -11.9628700   -136.3129000  
5550000000    -11.4079300   -98.5271800   12.9490900    97.7078600    -20.3275300   73.8446600    -11.9290700   -139.7179000  
5600000000    -11.3474000   -101.9425000  12.8735100    94.1743900    -20.2863400   70.8238800    -11.9135700   -142.6363000  
5650000000    -11.2796800   -105.6719000  12.7950700    90.7169400    -20.2502000   67.9832700    -11.9021400   -145.9586000  
5700000000    -11.1924000   -109.3994000  12.7296900    87.1338600    -20.2142600   65.1725400    -11.8547700   -149.2716000  
5750000000    -11.1305800   -113.0520000  12.6495200    83.5954200    -20.1792400   62.2659100    -11.8255600   -152.4807000  
5800000000    -11.0585900   -116.4290000  12.5816100    80.1704600    -20.1392300   59.4776800    -11.8030000   -155.7170000  
5850000000    -10.9682000   -119.9215000  12.4998100    76.5785100    -20.0985000   56.5582200    -11.7910600   -159.0181000  
5900000000    -10.9036600   -123.6270000  12.4306500    73.1245300    -20.0637800   53.8192100    -11.7577400   -162.4767000  
5950000000    -10.8184700   -127.4448000  12.3594900    69.5973400    -20.0211200   50.7312500    -11.7418000   -165.4822000  
6000000000    -10.7355900   -131.0728000  12.2815200    66.1062900    -19.9860300   47.9079400    -11.6918100   -168.7838000  
6050000000    -10.7042500   -134.7559000  12.2047200    62.5760000    -19.9602600   44.9865600    -11.6659200   -171.9864000  
6100000000    -10.5874700   -138.2414000  12.1353500    59.0918900    -19.9313000   42.2741400    -11.6071700   -175.4483000  
6150000000    -10.5562000   -141.5986000  12.0595600    55.5890500    -19.8966300   39.3049300    -11.5952300   -178.4825000  
6200000000    -10.4630400   -145.2932000  11.9866000    52.1265700    -19.8545100   36.4429500    -11.5711600   178.2122000   
6250000000    -10.3876300   -148.7704000  11.9150900    48.6239200    -19.8239300   33.5303800    -11.5436000   175.1403000   
6300000000    -10.3406000   -152.2887000  11.8454300    45.0897200    -19.7904300   30.6205100    -11.5002700   171.8855000   
6350000000    -10.2513600   -156.1192000  11.7774000    41.5942900    -19.7635000   27.6744600    -11.4460600   168.8385000   
6400000000    -10.2035000   -159.5914000  11.7036400    38.1610500    -19.7432700   24.8405100    -11.4275200   165.5809000   
6450000000    -10.0953600   -163.2026000  11.6343700    34.6498300    -19.7091800   22.0409000    -11.3785500   162.2490000   
6500000000    -10.0551700   -166.6948000  11.5658600    31.1655700    -19.6731700   19.1823500    -11.3518500   159.0863000   
6550000000    -9.9805560    -170.2542000  11.4947300    27.7094600    -19.6429200   16.3005500    -11.3130300   155.8760000   
6600000000    -9.9306710    -173.7717000  11.4227400    24.1950200    -19.6045100   13.3228100    -11.2966400   152.8804000   
6650000000    -9.8252460    -177.2404000  11.3537300    20.7651500    -19.5844900   10.4534500    -11.2451300   149.7025000   
6700000000    -9.7633120    179.2788000   11.2836600    17.3067000    -19.5518000   7.5966410     -11.2193200   146.6051000   
6750000000    -9.7140830    175.7594000   11.2115900    13.8055800    -19.5329500   4.7707280     -11.1634900   143.3125000   
6800000000    -9.6633470    172.1334000   11.1497500    10.3173000    -19.5000900   1.8350820     -11.1332100   140.2661000   
6850000000    -9.5818070    168.7778000   11.0720800    6.8652490     -19.4672600   -0.9624902    -11.1058900   136.9317000   
6900000000    -9.5268240    165.0173000   11.0030500    3.3708690     -19.4357000   -3.9073040    -11.0514300   133.8117000   
6950000000    -9.4412620    161.6018000   10.9351200    -0.1127242    -19.4085400   -6.8421970    -11.0197100   130.8574000   
7000000000    -9.3869550    158.0192000   10.8744700    -3.5609790    -19.3819700   -9.6710330    -10.9699400   127.6516000   
7050000000    -9.3273970    154.5488000   10.7957100    -7.0115340    -19.3599600   -12.5836900   -10.9387200   124.5798000   
7100000000    -9.2595520    151.0491000   10.7335000    -10.4831600   -19.3338300   -15.3639600   -10.8867800   121.3025000   
7150000000    -9.1767790    147.5075000   10.6571100    -13.9396000   -19.3054200   -18.3503600   -10.8493600   118.2768000   
7200000000    -9.1162990    144.0814000   10.5936000    -17.4267100   -19.2731700   -21.1582700   -10.8087500   115.1305000   
7250000000    -9.0744510    140.5053000   10.5262200    -20.8656900   -19.2525500   -24.1073900   -10.7651500   112.0990000   
7300000000    -8.9898570    136.8818000   10.4560900    -24.2801100   -19.2267700   -27.0411800   -10.7254100   109.0560000   
