!Mini-Circuits Laboratory
!S-Parameters
!Model: LEE2-6+
!Run / Lot / Date Code: N/A / N/A / N/A
!Fixture: TB-621+ DC 1602
!Network Analyzer: PNA-X N5242A - 423 4 ports;  Serial number: 71404
!Date: 4/12/2016 at 7:56:13 AM
!S/N: Unit# 1
!Tested with: 
!
# Hz  S  dB  R  50
!Frequency    S11 dB        S11 Deg       S21 dB        S21 Deg       S12 dB        S12 Deg       S22 dB        S22 Deg       
10000000      -29.7197500   6.0557030     21.6455800    178.1422000   -23.5789000   0.3356203     -32.9686200   9.7764480     
20000000      -32.6870500   -3.6892520    21.6551200    177.8806000   -23.5832900   -0.4060237    -39.9743800   -0.3877221    
30000000      -32.0488500   -6.9223250    21.6542100    176.9038000   -23.6119300   -0.9780297    -41.7579800   -20.1989800   
40000000      -31.6119700   -13.1720500   21.6323200    176.0127000   -23.6218900   -1.6639360    -40.7637600   -49.6435400   
50000000      -32.9342500   -24.5090400   21.5885200    175.0650000   -23.6026000   -2.0361880    -38.3897300   -93.3558400   
60000000      -32.7661200   -11.9279900   21.6049200    174.3877000   -23.6113800   -2.9461910    -41.6642900   -84.8963900   
70000000      -31.8789000   -16.9502500   21.6049600    173.3356000   -23.5938900   -3.3754050    -38.9715500   -66.1603200   
80000000      -31.5377500   -19.5590400   21.5999500    172.3742000   -23.5862300   -3.9789770    -36.3154600   -68.4424700   
90000000      -31.5472100   -22.5026900   21.5883800    171.4132000   -23.5697800   -4.4848430    -35.0412100   -69.7746800   
100000000     -31.4471300   -23.8118900   21.5878500    170.4438000   -23.5633900   -5.1487440    -33.5280400   -72.9293400   
150000000     -30.6915400   -36.2119100   21.5591900    165.7155000   -23.6020200   -7.6009980    -30.9887200   -93.1465200   
200000000     -30.3188600   -44.6760100   21.5375700    160.9776000   -23.5756500   -9.9761540    -28.8755800   -94.4230000   
250000000     -29.5957100   -56.0580500   21.5173500    156.3075000   -23.6146300   -12.4566100   -27.3076300   -106.6659000  
300000000     -29.0834800   -63.5522100   21.4771200    151.5386000   -23.5873800   -14.7042200   -26.2683500   -108.5625000  
350000000     -28.2905200   -71.9069200   21.4498400    146.8614000   -23.6006300   -17.2019800   -24.8910600   -114.5961000  
400000000     -27.9158000   -76.4503100   21.4124600    142.2122000   -23.5680500   -19.4084200   -24.3691200   -116.7108000  
450000000     -27.0580500   -81.4661900   21.3679800    137.5677000   -23.5717100   -21.8856400   -23.3655300   -122.6936000  
500000000     -26.5685900   -87.4342700   21.3224200    132.9657000   -23.5402000   -24.3523000   -22.3487300   -124.5056000  
550000000     -25.9294000   -93.1153100   21.2686800    128.3312000   -23.5535500   -26.8998000   -21.3823100   -131.2576000  
600000000     -25.5297900   -98.7591600   21.2194300    123.7268000   -23.5618000   -29.2891500   -20.7986600   -136.3944000  
650000000     -24.9138700   -103.1103000  21.1555300    119.1273000   -23.5068900   -31.7024400   -20.1882600   -137.9297000  
700000000     -24.2020200   -107.7404000  21.0782500    114.5541000   -23.4896700   -34.1306700   -19.6348400   -142.0816000  
750000000     -23.8623400   -112.3003000  21.0258400    110.0377000   -23.4762000   -36.5170200   -19.1741700   -146.1836000  
800000000     -23.3949600   -116.3176000  20.9554600    105.4781000   -23.4718500   -38.9284300   -18.7000500   -150.9102000  
850000000     -22.9481500   -121.3802000  20.8926600    101.0071000   -23.4400500   -41.2632900   -18.4095100   -154.4347000  
900000000     -22.4940400   -124.6464000  20.8177200    96.4689400    -23.4169900   -43.6862400   -18.0055200   -158.2801000  
950000000     -22.1147300   -127.5747000  20.7409800    92.0501300    -23.4006200   -46.1347500   -17.6154400   -162.2652000  
1000000000    -21.6246200   -132.4707000  20.6648700    87.6486700    -23.3579400   -48.6152800   -17.2835900   -165.4347000  
1050000000    -21.3126200   -135.7165000  20.5808900    83.2214100    -23.3730100   -51.2368500   -16.7414800   -170.7568000  
1100000000    -20.9360700   -140.6930000  20.5055800    78.8275100    -23.3351800   -53.6529500   -16.5077200   -174.1569000  
1150000000    -20.7229300   -143.1205000  20.4156500    74.3611700    -23.2833300   -56.0276300   -16.3261100   -176.8037000  
1200000000    -20.3000300   -147.2778000  20.3338400    70.0576500    -23.2788900   -58.4764100   -16.0738300   178.6311000   
1250000000    -20.0659300   -150.4674000  20.2468200    65.6891200    -23.2183500   -60.9691200   -15.8052800   175.9638000   
1300000000    -19.6621400   -154.2941000  20.1608100    61.3561500    -23.2294600   -63.3938200   -15.6027500   170.8059000   
1350000000    -19.4720300   -157.1283000  20.0698100    57.0061100    -23.1837700   -65.9186200   -15.3545500   167.5830000   
1400000000    -19.1071100   -161.2517000  19.9772800    52.7296400    -23.1226000   -68.4562400   -15.1714700   164.9223000   
1450000000    -18.8052900   -164.9991000  19.8879200    48.5297000    -23.1434200   -70.8132700   -15.0068400   159.5776000   
1500000000    -18.5952100   -168.2237000  19.7960700    44.2754100    -23.0988000   -73.4111300   -14.7794700   156.1782000   
1550000000    -18.3314100   -171.4819000  19.6928200    40.0389400    -23.0630000   -75.8327000   -14.6700200   152.6874000   
1600000000    -18.0176800   -175.1998000  19.6012400    35.8967600    -23.0210600   -78.3625600   -14.5209100   149.3345000   
1650000000    -17.7992800   -178.4596000  19.5100500    31.6699700    -23.0444600   -80.7534300   -14.3825900   144.0186000   
1700000000    -17.5749300   178.3883000   19.4097600    27.4764300    -22.9548600   -83.3854100   -14.2641500   142.1295000   
1750000000    -17.3668000   175.0677000   19.3096800    23.3524700    -22.9093700   -85.8083000   -14.1575800   138.5908000   
1800000000    -17.2190200   171.6945000   19.2127600    19.1813500    -22.9090300   -88.2537400   -14.0639300   134.0974000   
1850000000    -17.0384800   168.3739000   19.1074500    14.9979800    -22.8425400   -90.8921700   -13.9342000   131.4821000   
1900000000    -16.7584400   164.9076000   19.0122300    10.9271400    -22.8189900   -93.2911400   -13.9175600   127.4006000   
1950000000    -16.5070000   161.2853000   18.9160100    6.8550530     -22.7615500   -95.8316800   -13.8298400   124.1269000   
2000000000    -16.3443500   157.9101000   18.8185400    2.8021300     -22.7364900   -98.3167900   -13.7261200   120.2969000   
2050000000    -16.2170800   154.7278000   18.7157600    -1.2625530    -22.6895400   -100.8362000  -13.6662300   116.9680000   
2100000000    -15.9839900   150.7204000   18.6219200    -5.2204900    -22.6156400   -103.5821000  -13.5327300   114.1423000   
2150000000    -15.8377900   147.8298000   18.5142200    -9.3042670    -22.5944900   -106.0434000  -13.5108300   110.1058000   
2200000000    -15.6211600   144.0795000   18.4242100    -13.1962700   -22.5832600   -108.6401000  -13.3859900   105.9787000   
2250000000    -15.5340900   141.2742000   18.3163400    -17.3202800   -22.4889700   -111.2162000  -13.3972900   103.7523000   
2300000000    -15.3443200   137.8224000   18.2085800    -21.2839100   -22.4165500   -113.9777000  -13.2870600   101.0351000   
2350000000    -15.2147800   134.2255000   18.1220600    -25.2621100   -22.4391900   -116.4242000  -13.2216000   95.9800500    
2400000000    -15.0718500   131.3539000   18.0070500    -29.2113800   -22.3697700   -119.2199000  -13.1144000   93.3384200    
2450000000    -14.9251400   127.4713000   17.9229900    -33.0926500   -22.3527700   -121.6134000  -13.1264700   89.1201500    
2500000000    -14.7715100   124.1033000   17.8197500    -37.0538400   -22.2687400   -124.4081000  -13.0517200   86.6159600    
2550000000    -14.6370100   120.4910000   17.7322300    -40.9038700   -22.2790600   -126.9094000  -13.0022000   81.7614700    
2600000000    -14.5917000   117.3238000   17.6282600    -44.9306900   -22.1800900   -129.7236000  -12.9617000   79.7938900    
2650000000    -14.3975200   113.4841000   17.5336700    -48.7173000   -22.1813000   -132.1770000  -12.9473400   75.0304700    
2700000000    -14.2528300   110.0993000   17.4323100    -52.6557800   -22.1093300   -134.9031000  -12.9097100   72.3018500    
2750000000    -14.1428700   107.0355000   17.3312000    -56.4458500   -22.0878100   -137.5178000  -12.8643700   68.2226500    
2800000000    -14.0772000   103.3656000   17.2377400    -60.3919800   -22.0333400   -140.1680000  -12.8443300   65.0662500    
2850000000    -13.9231700   99.9557000    17.1348400    -64.1850400   -21.9732800   -142.9127000  -12.8269400   61.9250100    
2900000000    -13.8355600   96.6652500    17.0449700    -68.0846300   -21.9535400   -145.4632000  -12.8304400   57.8881000    
2950000000    -13.7707000   93.0782700    16.9451400    -71.9401900   -21.8713200   -148.3075000  -12.7729900   55.2546200    
3000000000    -13.6315500   89.1383700    16.8629700    -75.6591000   -21.8832400   -150.7957000  -12.7511000   50.4762500    
3050000000    -13.5473100   86.0257400    16.7577100    -79.5435500   -21.7942400   -153.6879000  -12.7008200   48.1583100    
3100000000    -13.4478600   82.4130500    16.6690000    -83.2899100   -21.7921600   -156.2153000  -12.7021500   43.6199300    
3150000000    -13.3915500   79.1445200    16.5685400    -87.1618900   -21.7084000   -159.0218000  -12.7150000   41.0647100    
3200000000    -13.2479800   75.5147900    16.4650000    -90.8826300   -21.6942700   -161.6622000  -12.6967500   36.8080900    
3250000000    -13.1885600   72.1658000    16.3878000    -94.6959400   -21.6445100   -164.5536000  -12.6080300   33.8017500    
3300000000    -13.0447200   68.0830600    16.2918300    -98.3280300   -21.5890400   -167.3675000  -12.5804400   30.6050300    
3350000000    -13.0240700   64.9368600    16.1979100    -102.2124000  -21.5411700   -169.9535000  -12.6204200   27.0269700    
3400000000    -12.9528600   61.7252900    16.1032400    -106.0061000  -21.5068900   -172.7393000  -12.5817200   23.4656200    
3450000000    -12.8774200   57.9491100    16.0167300    -109.6624000  -21.4672100   -175.4577000  -12.5833000   19.8608300    
3500000000    -12.7779500   54.8506800    15.9126100    -113.5358000  -21.3945700   -178.3288000  -12.5859700   17.0684800    
3550000000    -12.6946800   50.3350600    15.8405100    -117.0596000  -21.4111500   179.3327000   -12.6262000   12.0402000    
3600000000    -12.6170200   47.2258500    15.7394800    -120.8535000  -21.3176600   176.3415000   -12.6168800   9.6196830     
3650000000    -12.5111400   43.5885500    15.6498700    -124.5427000  -21.2707000   173.4921000   -12.5810400   6.5131640     
3700000000    -12.4840000   39.7622600    15.5734400    -128.3187000  -21.2127500   170.6711000   -12.5565700   3.0596330     
3750000000    -12.3737100   36.6166300    15.4622900    -131.9573000  -21.2186200   168.1574000   -12.5845600   -1.3531790    
3800000000    -12.3729100   32.6991000    15.3942500    -135.7070000  -21.1871800   165.4193000   -12.5751800   -5.1409430    
3850000000    -12.2649900   29.3380000    15.2963200    -139.3873000  -21.0818700   162.3500000   -12.5728800   -7.1688860    
3900000000    -12.1805100   25.1954700    15.2271900    -143.0013000  -21.0853900   159.9486000   -12.5983600   -12.0877200   
3950000000    -12.1454000   22.5521200    15.1055400    -146.8650000  -21.0101800   156.8293000   -12.5791500   -14.4938800   
4000000000    -12.0761600   18.1925000    15.0486900    -150.3875000  -21.0186000   154.3096000   -12.5466600   -19.0561400   
4050000000    -11.9861100   14.8172000    14.9513700    -154.0880000  -20.9274000   151.0396000   -12.5232500   -21.2487000   
4100000000    -11.8989300   10.9016500    14.8744600    -157.6472000  -20.9483300   148.8002000   -12.5597700   -26.4074200   
4150000000    -11.8706800   7.2720340     14.7967200    -161.4581000  -20.8853100   145.6879000   -12.5213000   -29.2394600   
4200000000    -11.7587600   3.8464650     14.6882300    -165.0052000  -20.8527600   142.9674000   -12.5297000   -32.7040400   
4250000000    -11.8259700   0.2674197     14.6180800    -168.8514000  -20.7959500   140.0863000   -12.5192100   -36.0018600   
4300000000    -11.6070000   -3.5948530    14.5305200    -172.2653000  -20.7710400   137.2405000   -12.5015600   -39.5463400   
4350000000    -11.6191400   -7.2093550    14.4597600    -176.0200000  -20.7448500   134.5726000   -12.5167100   -43.5869900   
4400000000    -11.5526400   -10.8108500   14.3621100    -179.5789000  -20.6957300   131.4782000   -12.4752900   -46.3901600   
4450000000    -11.5017000   -14.5140900   14.2903300    176.7666000   -20.6619100   128.9689000   -12.5225600   -50.3557600   
4500000000    -11.4441000   -18.1742400   14.2049900    173.0647000   -20.6306700   126.0614000   -12.5027400   -53.9960800   
4550000000    -11.3322000   -22.1310500   14.1253300    169.6481000   -20.6122500   123.4229000   -12.5181300   -57.9942000   
4600000000    -11.3324900   -25.3456500   14.0360100    165.8630000   -20.5458600   120.2094000   -12.4677800   -60.6633800   
4650000000    -11.2175800   -29.6253400   13.9723000    162.3284000   -20.5370300   117.4799000   -12.4592500   -64.4218100   
4700000000    -11.2124400   -32.6776800   13.8779000    158.5842000   -20.4978200   114.7144000   -12.4570400   -68.1078900   
4750000000    -11.1562100   -36.5901700   13.8003400    155.0276000   -20.4791700   111.8163000   -12.4179400   -71.6842700   
4800000000    -11.0554900   -40.5476800   13.7314500    151.5089000   -20.4424800   109.1547000   -12.4469400   -75.5449800   
4850000000    -10.9851300   -43.8788100   13.6350900    147.8722000   -20.4076400   106.1858000   -12.4203300   -78.8232800   
4900000000    -10.9906700   -47.9685300   13.5868300    144.3084000   -20.3730900   103.5526000   -12.4508800   -82.6557600   
4950000000    -10.9070800   -51.5018500   13.4943400    140.6641000   -20.3257500   100.5636000   -12.4276400   -85.8400900   
5000000000    -10.8480000   -55.5637100   13.4288500    137.0841000   -20.3083900   97.8189800    -12.4164100   -89.6185600   
5050000000    -10.7726700   -58.6869500   13.3225500    133.5265000   -20.2594500   94.6895400    -12.3923800   -92.4422700   
5100000000    -10.7013900   -62.6761200   13.2527700    129.9909000   -20.2722600   92.2421600    -12.3944300   -97.0653900   
5150000000    -10.6505500   -66.0244400   13.1743700    126.3467000   -20.2079400   89.0390000    -12.3816300   -99.7111700   
5200000000    -10.6455900   -70.0096100   13.1088900    122.7881000   -20.1917900   86.5718400    -12.3837700   -104.0158000  
5250000000    -10.5734100   -73.8107200   13.0303400    119.2025000   -20.1276200   83.4029500    -12.3917600   -106.6243000  
5300000000    -10.4933900   -77.1545900   12.9340500    115.6316000   -20.1124400   80.7317700    -12.3961300   -110.6125000  
5350000000    -10.4674900   -80.8952600   12.8773900    112.0393000   -20.0877400   77.8279300    -12.3536000   -113.8158000  
5400000000    -10.3971500   -84.7951000   12.7950700    108.5449000   -20.0563600   74.8827100    -12.3235700   -117.3096000  
5450000000    -10.3671600   -88.2353700   12.7247200    104.9488000   -20.0198800   72.0570100    -12.3401200   -120.8015000  
5500000000    -10.3106000   -92.3294800   12.6530600    101.4044000   -19.9940100   69.3307600    -12.3389400   -124.5525000  
5550000000    -10.2049600   -95.6511500   12.5603400    97.8610800    -19.9671100   66.5873900    -12.3206600   -128.2035000  
5600000000    -10.1855100   -99.0948000   12.4909000    94.2830200    -19.9295700   63.3712500    -12.2898500   -130.8553000  
5650000000    -10.1213200   -102.9147000  12.4134600    90.8483800    -19.9017400   60.4873300    -12.2955500   -134.2236000  
5700000000    -10.0698600   -106.6989000  12.3513000    87.1980500    -19.8826200   57.7299700    -12.2542600   -137.9433000  
5750000000    -10.0363800   -110.2666000  12.2726800    83.6013700    -19.8597500   54.7556200    -12.2143200   -141.2066000  
5800000000    -9.9696450    -113.8236000  12.2117900    80.1592800    -19.8348700   52.0138000    -12.2067300   -144.7298000  
5850000000    -9.8985110    -117.2440000  12.1192700    76.5246300    -19.7974100   48.9932100    -12.2005400   -147.8908000  
5900000000    -9.8656220    -121.1380000  12.0605800    73.0787900    -19.7786500   46.4552200    -12.1901600   -151.8827000  
5950000000    -9.7712740    -124.9085000  11.9911800    69.5389800    -19.7373100   43.0973900    -12.1634800   -154.4508000  
6000000000    -9.7232920    -128.5084000  11.9142900    66.0347600    -19.7176500   40.3691700    -12.1286700   -158.1057000  
6050000000    -9.7300050    -132.1304000  11.8395600    62.4302600    -19.7039700   37.3834200    -12.1007100   -161.3481000  
6100000000    -9.6079870    -135.8469000  11.7687800    58.9678100    -19.6964000   34.8839500    -12.0522700   -165.4129000  
6150000000    -9.5796310    -139.2405000  11.6932500    55.4214400    -19.6645100   31.7614300    -12.0298300   -168.2232000  
6200000000    -9.5069930    -142.9732000  11.6233500    51.9345000    -19.6342500   28.9414000    -12.0148400   -171.6204000  
6250000000    -9.4717750    -146.4348000  11.5536900    48.3555500    -19.6110600   25.9502300    -11.9831400   -174.6925000  
6300000000    -9.4207330    -149.9054000  11.4847000    44.7792500    -19.5908800   23.0602500    -11.9336900   -178.1077000  
6350000000    -9.3464570    -153.7668000  11.4209900    41.2844700    -19.5768300   20.1020700    -11.8705800   178.6714000   
6400000000    -9.3063630    -157.3822000  11.3435300    37.8462400    -19.5702500   17.2287300    -11.8458700   175.3132000   
6450000000    -9.2155090    -161.1219000  11.2774100    34.3431200    -19.5477100   14.5258500    -11.8104400   171.7015000   
6500000000    -9.1973230    -164.4865000  11.2083300    30.8002100    -19.5216300   11.6622600    -11.7886600   168.4499000   
6550000000    -9.1401990    -168.2056000  11.1362200    27.3155400    -19.5018400   8.8079720     -11.7568100   165.1131000   
6600000000    -9.1017250    -171.5941000  11.0625900    23.7199500    -19.4660300   5.6978870     -11.7471100   162.2715000   
6650000000    -9.0001100    -175.2281000  10.9944700    20.3503400    -19.4674500   2.8808470     -11.6835800   158.8260000   
6700000000    -8.9482720    -178.6934000  10.9222500    16.8611800    -19.4420000   -0.0109593    -11.6625100   155.7255000   
6750000000    -8.9158340    177.7274000   10.8472700    13.3278900    -19.4426300   -2.7580770    -11.6066400   152.1737000   
6800000000    -8.9045880    174.1596000   10.7933800    9.7773570     -19.4166800   -5.7344280    -11.5822200   149.1167000   
6850000000    -8.8155390    170.7527000   10.7128100    6.3199650     -19.3954000   -8.4448110    -11.5628200   145.5722000   
6900000000    -8.8010560    166.9453000   10.6479700    2.8142470     -19.3707400   -11.3295200   -11.5143300   142.3303000   
6950000000    -8.7058230    163.5726000   10.5723400    -0.6837500    -19.3563400   -14.3936100   -11.4759700   139.4472000   
7000000000    -8.6721740    159.8461000   10.5258800    -4.1632230    -19.3400300   -17.1457600   -11.4260900   136.0031000   
7050000000    -8.6104050    156.3799000   10.4387300    -7.6296930    -19.3338900   -20.1093900   -11.3881200   132.9613000   
7100000000    -8.5686280    152.8778000   10.3808600    -11.1415300   -19.3187500   -22.7216600   -11.3422600   129.3255000   
7150000000    -8.4867720    149.3804000   10.2977300    -14.6049700   -19.3041100   -25.7975000   -11.2964800   126.4216000   
7200000000    -8.4378270    145.9032000   10.2368900    -18.1002700   -19.2776300   -28.5187600   -11.2666800   123.1125000   
7250000000    -8.4110050    142.2802000   10.1757200    -21.5672000   -19.2670600   -31.5157200   -11.2212900   120.0946000   
7300000000    -8.3419430    138.6316000   10.1063800    -24.9813300   -19.2549800   -34.4200000   -11.1763500   116.9495000   
