! Infineon Technologies  Discrete & RF Semiconductors
! BFP740
! VCE =  2.5 V,  IC =  8.0 mA
! Common Emitter S-Parameters:                            Mar 2013
# GHz  S  MA  R  50
!  f         S11            S21            S12            S22
! GHz     MAG   ANG      MAG   ANG      MAG   ANG      MAG   ANG
 0.030  0.9192   -2.1  21.941  176.8  0.0017   89.4  0.9964   -1.4
 0.040  0.9191   -2.8  21.870  176.0  0.0023   82.5  0.9976   -1.9
 0.050  0.9201   -3.6  22.051  175.5  0.0036   85.1  0.9973   -2.5
 0.060  0.9174   -4.3  21.870  174.4  0.0033   74.0  0.9956   -2.9
 0.070  0.9162   -4.9  21.802  173.8  0.0026   97.4  0.9958   -3.3
 0.080  0.9168   -5.7  21.705  173.0  0.0041   90.5  0.9949   -3.9
 0.090  0.9132   -6.4  21.633  172.3  0.0049   74.9  0.9937   -4.4
 0.100  0.9127   -7.1  21.551  171.7  0.0050   92.5  0.9936   -4.9
 0.110  0.9112   -7.7  21.495  170.9  0.0061   86.9  0.9912   -5.4
 0.120  0.9111   -8.4  21.333  170.2  0.0059   84.8  0.9910   -5.8
 0.130  0.9116   -9.1  21.184  169.6  0.0065   83.5  0.9899   -6.3
 0.140  0.9096   -9.8  21.065  169.1  0.0072   83.4  0.9885   -6.7
 0.150  0.9092  -10.5  21.022  168.5  0.0077   80.6  0.9862   -7.3
 0.200  0.9029  -13.8  20.519  165.7  0.0102   81.7  0.9800   -9.5
 0.250  0.8964  -17.0  20.137  163.3  0.0126   78.6  0.9726  -11.6
 0.300  0.8924  -20.2  19.660  161.1  0.0153   78.7  0.9654  -13.8
 0.350  0.8864  -23.3  19.371  158.9  0.0171   75.5  0.9586  -15.9
 0.400  0.8807  -26.5  19.103  156.7  0.0196   74.1  0.9495  -18.0
 0.450  0.8739  -29.7  18.902  154.6  0.0219   71.7  0.9431  -20.1
 0.500  0.8682  -32.8  18.616  152.6  0.0241   71.0  0.9332  -22.2
 0.600  0.8548  -38.9  18.143  148.5  0.0284   67.0  0.9141  -26.1
 0.700  0.8419  -45.0  17.686  144.5  0.0326   63.5  0.8938  -30.1
 0.800  0.8263  -51.3  17.368  140.4  0.0365   60.2  0.8713  -34.0
 0.900  0.8121  -57.3  16.924  136.5  0.0399   56.9  0.8475  -37.8
 1.000  0.7992  -62.8  16.368  132.9  0.0432   53.4  0.8241  -41.5
 1.100  0.7833  -68.6  15.950  129.1  0.0464   50.4  0.7988  -45.1
 1.200  0.7688  -74.1  15.470  125.5  0.0491   47.6  0.7741  -48.7
 1.300  0.7547  -79.5  15.038  122.0  0.0516   44.8  0.7506  -51.9
 1.400  0.7429  -84.7  14.604  118.7  0.0539   42.4  0.7278  -55.1
 1.500  0.7309  -89.6  14.148  115.6  0.0561   39.9  0.7053  -58.1
 1.600  0.7188  -95.2  13.839  112.1  0.0579   37.5  0.6831  -61.2
 1.700  0.7090 -100.0  13.426  109.1  0.0597   35.3  0.6600  -64.2
 1.800  0.7011 -104.7  13.014  106.2  0.0615   33.2  0.6413  -67.1
 1.900  0.6937 -109.4  12.665  103.3  0.0629   31.0  0.6187  -70.1
 2.000  0.6864 -114.0  12.305  100.5  0.0643   29.0  0.6002  -73.1
 2.100  0.6793 -119.0  11.968   97.4  0.0653   26.8  0.5786  -76.1
 2.200  0.6722 -123.1  11.612   94.7  0.0664   25.1  0.5608  -78.8
 2.300  0.6657 -127.5  11.292   92.0  0.0673   23.3  0.5423  -81.5
 2.400  0.6611 -131.2  10.941   89.6  0.0683   21.6  0.5257  -84.2
 2.500  0.6557 -135.5  10.653   86.9  0.0689   19.8  0.5079  -86.8
 2.600  0.6509 -139.5  10.362   84.4  0.0696   18.3  0.4893  -89.6
 2.700  0.6470 -143.6  10.098   81.9  0.0701   16.9  0.4734  -92.2
 2.800  0.6429 -147.4   9.825   79.4  0.0706   15.3  0.4573  -95.0
 2.900  0.6404 -151.1   9.558   77.1  0.0714   13.7  0.4436  -97.7
 3.000  0.6372 -154.8   9.302   74.7  0.0715   12.4  0.4283 -100.8
 3.100  0.6348 -158.6   9.075   72.3  0.0719   11.1  0.4145 -103.6
 3.200  0.6324 -162.2   8.837   70.0  0.0720    9.7  0.4018 -106.7
 3.300  0.6319 -165.4   8.601   67.8  0.0725    8.4  0.3911 -109.6
 3.400  0.6306 -169.0   8.380   65.6  0.0725    7.2  0.3788 -112.7
 3.500  0.6300 -172.3   8.164   63.4  0.0728    6.0  0.3680 -115.6
 3.600  0.6297 -175.7   7.963   61.2  0.0727    4.8  0.3572 -118.8
 3.700  0.6298 -178.7   7.757   59.1  0.0726    3.6  0.3477 -122.0
 3.800  0.6305  178.2   7.563   57.0  0.0727    2.4  0.3389 -125.2
 3.900  0.6306  175.4   7.368   55.0  0.0726    1.3  0.3314 -128.4
 4.000  0.6323  172.6   7.176   53.0  0.0725    0.4  0.3246 -131.7
 4.100  0.6325  169.7   7.005   51.0  0.0723   -0.6  0.3185 -134.9
 4.200  0.6347  167.1   6.820   49.0  0.0721   -1.5  0.3136 -138.0
 4.300  0.6353  164.5   6.656   47.1  0.0720   -2.4  0.3096 -140.9
 4.400  0.6386  162.2   6.486   45.2  0.0717   -3.3  0.3051 -143.8
 4.500  0.6391  159.8   6.331   43.4  0.0714   -4.1  0.3014 -146.7
 4.600  0.6425  157.5   6.182   41.5  0.0712   -4.9  0.2980 -149.6
 4.700  0.6436  155.4   6.032   39.8  0.0707   -5.6  0.2945 -152.4
 4.800  0.6467  153.3   5.890   38.0  0.0708   -6.3  0.2926 -154.9
 4.900  0.6478  151.4   5.753   36.2  0.0705   -6.9  0.2896 -157.6
 5.000  0.6510  149.4   5.629   34.6  0.0699   -7.4  0.2871 -160.2
 5.100  0.6523  147.6   5.498   32.9  0.0698   -8.0  0.2857 -162.6
 5.200  0.6547  145.9   5.381   31.3  0.0696   -8.6  0.2838 -165.0
 5.300  0.6554  144.3   5.254   29.6  0.0695   -9.3  0.2824 -167.3
 5.400  0.6576  142.7   5.146   28.1  0.0692   -9.7  0.2804 -169.7
 5.500  0.6581  141.2   5.035   26.5  0.0689  -10.1  0.2790 -172.1
 5.600  0.6602  139.6   4.939   24.9  0.0687  -10.4  0.2775 -174.5
 5.700  0.6602  138.3   4.835   23.4  0.0685  -11.0  0.2763 -176.8
 5.800  0.6619  136.8   4.744   21.8  0.0684  -11.2  0.2763 -179.1
 5.900  0.6633  135.7   4.648   20.4  0.0681  -11.6  0.2763  178.7
 6.000  0.6648  134.2   4.568   18.8  0.0683  -11.9  0.2769  176.4
 6.100  0.6679  133.0   4.488   17.3  0.0683  -12.1  0.2778  174.2
 6.200  0.6686  131.7   4.411   15.8  0.0684  -12.6  0.2794  172.2
 6.300  0.6713  130.4   4.331   14.3  0.0685  -13.0  0.2807  169.8
 6.400  0.6727  129.0   4.262   12.7  0.0686  -13.4  0.2831  167.8
 6.500  0.6755  127.5   4.192   11.1  0.0687  -13.9  0.2850  165.4
 6.600  0.6766  126.1   4.121    9.5  0.0685  -14.2  0.2872  163.3
 6.700  0.6792  124.8   4.052    8.0  0.0688  -14.7  0.2898  161.4
 6.800  0.6810  123.3   3.985    6.5  0.0688  -15.1  0.2924  159.2
 6.900  0.6838  121.9   3.922    5.0  0.0688  -15.6  0.2954  157.2
 7.000  0.6854  120.3   3.864    3.3  0.0688  -15.9  0.2990  155.1
 7.100  0.6886  118.9   3.802    1.8  0.0690  -16.5  0.3025  153.2
 7.200  0.6906  117.4   3.742    0.2  0.0691  -16.8  0.3062  151.4
 7.300  0.6936  116.1   3.683   -1.4  0.0693  -17.4  0.3098  149.5
 7.400  0.6958  114.4   3.625   -3.0  0.0694  -17.7  0.3134  147.6
 7.500  0.6998  112.8   3.569   -4.7  0.0695  -18.2  0.3168  145.5
 7.600  0.7025  111.2   3.515   -6.3  0.0694  -18.7  0.3214  143.5
 7.700  0.7073  109.7   3.458   -8.0  0.0695  -19.2  0.3252  141.4
 7.800  0.7107  108.0   3.397   -9.6  0.0698  -19.9  0.3292  139.5
 7.900  0.7155  106.5   3.343  -11.3  0.0698  -20.2  0.3338  137.2
 8.000  0.7194  104.9   3.286  -12.9  0.0697  -20.9  0.3386  135.3
 8.500  0.7432   97.1   3.000  -21.3  0.0696  -23.6  0.3654  124.0
 9.000  0.7664   89.9   2.709  -29.0  0.0688  -26.0  0.4062  113.1
 9.500  0.7895   83.9   2.420  -35.9  0.0674  -27.9  0.4554  104.5
10.000  0.8098   79.7   2.170  -41.8  0.0664  -29.0  0.5048   99.4
!
!  f       NFmin   Gammaopt  rn/50
! GHz       dB    MAG  ANG    -
 0.450      0.48  0.29    9   0.17
 0.900      0.49  0.29   15   0.17
 1.500      0.51  0.28   23   0.16
 1.900      0.54  0.27   41   0.16
 2.400      0.56  0.27   46   0.15
 3.500      0.67  0.24   62   0.14
 5.500      0.86  0.19 -178   0.13
10.000      1.39  0.52  -77   0.17
!
! (c) 2013  Infineon Technologies AG, Munich