! Infineon Technologies  Discrete & RF Semiconductors
! BFP740
! VCE =  2.5 V,  IC =  12 mA
! Common Emitter S-Parameters:                            Mar 2013
# GHz  S  MA  R  50
!  f         S11            S21            S12            S22
! GHz     MAG   ANG      MAG   ANG      MAG   ANG      MAG   ANG
 0.030  0.8789   -2.6  30.233  176.1  0.0014   65.6  0.9949   -1.7
 0.040  0.8772   -3.5  30.138  175.0  0.0019   92.3  0.9949   -2.3
 0.050  0.8758   -4.5  30.280  174.3  0.0020   70.0  0.9927   -3.1
 0.060  0.8762   -5.4  30.036  173.0  0.0040   93.8  0.9947   -3.5
 0.070  0.8743   -6.2  29.858  172.1  0.0039   94.1  0.9927   -4.2
 0.080  0.8732   -7.0  29.683  171.2  0.0040   93.9  0.9917   -4.8
 0.090  0.8702   -8.0  29.480  170.3  0.0051   91.3  0.9912   -5.5
 0.100  0.8693   -8.8  29.329  169.5  0.0051   93.9  0.9879   -6.1
 0.110  0.8673   -9.6  29.178  168.6  0.0055   74.8  0.9864   -6.6
 0.120  0.8662  -10.5  28.929  167.8  0.0065   78.8  0.9846   -7.1
 0.130  0.8665  -11.3  28.651  167.0  0.0060   83.3  0.9827   -7.8
 0.140  0.8642  -12.1  28.448  166.3  0.0065   83.4  0.9807   -8.3
 0.150  0.8625  -13.0  28.316  165.6  0.0067   81.4  0.9778   -8.9
 0.200  0.8540  -17.0  27.399  162.4  0.0098   79.4  0.9674  -11.5
 0.250  0.8464  -20.9  26.624  159.6  0.0123   77.2  0.9573  -14.0
 0.300  0.8395  -24.7  25.838  157.1  0.0146   75.4  0.9459  -16.4
 0.350  0.8321  -28.4  25.236  154.6  0.0167   74.7  0.9353  -19.0
 0.400  0.8246  -32.2  24.742  152.2  0.0187   71.5  0.9226  -21.4
 0.450  0.8168  -36.0  24.307  149.9  0.0210   70.1  0.9132  -23.7
 0.500  0.8099  -39.6  23.818  147.8  0.0228   67.9  0.8995  -26.0
 0.600  0.7939  -46.8  22.966  143.3  0.0271   64.9  0.8742  -30.5
 0.700  0.7787  -53.9  22.143  139.1  0.0305   61.1  0.8468  -34.9
 0.800  0.7620  -61.1  21.453  134.7  0.0339   57.3  0.8180  -39.1
 0.900  0.7475  -67.8  20.718  130.7  0.0371   53.8  0.7886  -43.3
 1.000  0.7337  -74.0  19.873  126.9  0.0397   50.6  0.7598  -47.2
 1.100  0.7181  -80.4  19.181  123.0  0.0422   47.7  0.7297  -51.0
 1.200  0.7046  -86.4  18.448  119.4  0.0442   44.8  0.7014  -54.7
 1.300  0.6915  -92.3  17.778  115.9  0.0462   42.5  0.6750  -58.1
 1.400  0.6813  -97.8  17.132  112.6  0.0481   40.1  0.6498  -61.4
 1.500  0.6710 -103.1  16.494  109.4  0.0497   37.8  0.6255  -64.5
 1.600  0.6619 -108.7  15.973  106.2  0.0513   35.7  0.6018  -67.7
 1.700  0.6545 -113.7  15.396  103.2  0.0524   33.6  0.5776  -70.7
 1.800  0.6491 -118.4  14.851  100.4  0.0538   31.7  0.5580  -73.7
 1.900  0.6441 -123.2  14.370   97.6  0.0549   29.8  0.5356  -76.7
 2.000  0.6395 -127.9  13.890   94.8  0.0558   28.4  0.5166  -79.7
 2.100  0.6350 -132.6  13.417   91.9  0.0566   26.4  0.4961  -82.8
 2.200  0.6303 -136.7  12.965   89.3  0.0574   24.8  0.4787  -85.5
 2.300  0.6268 -140.9  12.552   86.7  0.0582   23.3  0.4613  -88.2
 2.400  0.6246 -144.6  12.133   84.4  0.0586   21.8  0.4455  -90.9
 2.500  0.6218 -148.7  11.765   81.9  0.0592   20.5  0.4288  -93.6
 2.600  0.6196 -152.5  11.400   79.6  0.0596   19.3  0.4120  -96.4
 2.700  0.6179 -156.3  11.065   77.2  0.0600   18.0  0.3970  -99.1
 2.800  0.6161 -159.8  10.731   74.9  0.0607   16.8  0.3825 -102.0
 2.900  0.6164 -163.3  10.416   72.6  0.0610   15.8  0.3702 -104.9
 3.000  0.6152 -166.7  10.109   70.5  0.0613   14.7  0.3569 -108.0
 3.100  0.6150 -170.2   9.828   68.2  0.0615   13.6  0.3453 -111.1
 3.200  0.6151 -173.4   9.550   66.1  0.0618   12.4  0.3342 -114.3
 3.300  0.6159 -176.5   9.279   64.0  0.0624   11.5  0.3257 -117.4
 3.400  0.6170 -179.7   9.021   62.0  0.0624   10.5  0.3159 -120.7
 3.500  0.6183  177.4   8.775   59.9  0.0626    9.6  0.3072 -123.8
 3.600  0.6197  174.4   8.540   57.9  0.0627    8.7  0.2986 -127.3
 3.700  0.6216  171.7   8.310   55.9  0.0629    7.9  0.2916 -130.7
 3.800  0.6236  168.9   8.091   53.9  0.0629    7.0  0.2852 -134.1
 3.900  0.6251  166.3   7.873   52.0  0.0631    6.2  0.2801 -137.6
 4.000  0.6278  163.8   7.660   50.2  0.0628    5.3  0.2759 -141.1
 4.100  0.6295  161.2   7.466   48.3  0.0632    4.6  0.2718 -144.5
 4.200  0.6328  158.9   7.268   46.5  0.0631    4.1  0.2695 -147.7
 4.300  0.6346  156.6   7.086   44.6  0.0634    3.2  0.2675 -150.8
 4.400  0.6385  154.5   6.900   42.9  0.0632    2.8  0.2651 -153.9
 4.500  0.6401  152.4   6.732   41.1  0.0631    2.2  0.2635 -156.9
 4.600  0.6443  150.3   6.568   39.4  0.0632    1.5  0.2619 -159.8
 4.700  0.6459  148.5   6.404   37.8  0.0630    0.9  0.2604 -162.6
 4.800  0.6498  146.6   6.253   36.1  0.0631    0.4  0.2600 -165.2
 4.900  0.6515  144.9   6.105   34.4  0.0632   -0.1  0.2591 -167.9
 5.000  0.6551  143.2   5.968   32.9  0.0630   -0.3  0.2579 -170.6
 5.100  0.6566  141.6   5.829   31.3  0.0632   -0.8  0.2578 -173.0
 5.200  0.6596  140.1   5.703   29.8  0.0630   -1.2  0.2573 -175.4
 5.300  0.6606  138.5   5.571   28.2  0.0631   -1.7  0.2570 -177.8
 5.400  0.6631  137.1   5.454   26.7  0.0632   -2.0  0.2564  179.8
 5.500  0.6638  135.7   5.337   25.2  0.0634   -2.3  0.2561  177.5
 5.600  0.6659  134.4   5.232   23.7  0.0633   -2.6  0.2559  175.3
 5.700  0.6661  133.2   5.122   22.3  0.0633   -2.9  0.2558  173.1
 5.800  0.6684  131.8   5.025   20.8  0.0638   -3.2  0.2567  170.9
 5.900  0.6700  130.8   4.926   19.4  0.0640   -3.4  0.2576  168.9
 6.000  0.6714  129.5   4.839   17.9  0.0641   -3.8  0.2590  166.6
 6.100  0.6748  128.4   4.752   16.4  0.0644   -4.1  0.2608  164.6
 6.200  0.6756  127.2   4.670   15.0  0.0650   -4.5  0.2633  162.6
 6.300  0.6786  126.0   4.586   13.5  0.0653   -4.9  0.2657  160.5
 6.400  0.6801  124.7   4.513   12.0  0.0655   -5.2  0.2687  158.5
 6.500  0.6830  123.3   4.437   10.5  0.0659   -5.8  0.2716  156.4
 6.600  0.6845  122.0   4.361    9.0  0.0662   -6.1  0.2745  154.3
 6.700  0.6873  120.8   4.291    7.5  0.0665   -6.6  0.2777  152.6
 6.800  0.6893  119.3   4.218    6.1  0.0668   -7.1  0.2809  150.6
 6.900  0.6921  118.1   4.151    4.6  0.0672   -7.6  0.2844  148.7
 7.000  0.6940  116.5   4.087    3.0  0.0675   -7.8  0.2889  146.9
 7.100  0.6974  115.2   4.023    1.5  0.0678   -8.5  0.2930  145.1
 7.200  0.6995  113.8   3.958   -0.0  0.0681   -8.8  0.2972  143.4
 7.300  0.7029  112.5   3.898   -1.6  0.0684   -9.4  0.3013  141.7
 7.400  0.7050  111.0   3.835   -3.1  0.0689  -10.0  0.3054  140.0
 7.500  0.7090  109.5   3.775   -4.8  0.0690  -10.5  0.3095  138.0
 7.600  0.7123  107.9   3.716   -6.3  0.0694  -11.1  0.3148  136.2
 7.700  0.7169  106.5   3.656   -7.9  0.0697  -11.8  0.3193  134.4
 7.800  0.7204  104.9   3.592   -9.5  0.0699  -12.5  0.3237  132.5
 7.900  0.7252  103.5   3.533  -11.1  0.0702  -13.0  0.3290  130.4
 8.000  0.7294  101.9   3.474  -12.7  0.0705  -13.5  0.3341  128.5
 8.500  0.7540   94.5   3.169  -20.8  0.0711  -16.7  0.3640  118.0
 9.000  0.7775   87.7   2.861  -28.3  0.0712  -19.9  0.4070  108.0
 9.500  0.8005   82.0   2.559  -34.8  0.0702  -22.3  0.4567  100.1
10.000  0.8207   77.9   2.300  -40.3  0.0694  -23.9  0.5049   95.5
!
!  f       NFmin   Gammaopt  rn/50
! GHz       dB    MAG  ANG    -
 0.450      0.54  0.16    4   0.16
 0.900      0.55  0.16   11   0.16
 1.500      0.57  0.15   22   0.15
 1.900      0.60  0.15   39   0.15
 2.400      0.63  0.15   46   0.14
 3.500      0.73  0.13   57   0.13
 5.500      0.90  0.16  211   0.12
10.000      1.33  0.50  -72   0.16
!
! (c) 2013  Infineon Technologies AG, Munich