# GHz S MA R 50

1.000000000000000e-01  9.999997e-01  1.646953e+02
3.222222222222222e-01  9.999653e-01  1.325080e+02
5.444444444444444e-01  9.997427e-01  1.048365e+02
7.666666666666667e-01  9.990593e-01  8.209744e+01
9.888888888888889e-01  9.974359e-01  6.332070e+01
1.211111111111111e+00  9.938557e-01  4.714375e+01
1.433333333333333e+00  9.858875e-01  3.212706e+01
1.655555555555556e+00  9.670479e-01  1.653344e+01
1.877777777777778e+00  9.176697e-01 -2.516864e+00
2.100000000000000e+00  7.727510e-01 -3.154678e+01
2.200000000000000e+00  6.369233e-01 -5.192450e+01
2.210204081632654e+00  6.196847e-01 -5.443849e+01
2.220408163265306e+00  6.018258e-01 -5.705545e+01
2.230612244897960e+00  5.833664e-01 -5.978346e+01
2.240816326530613e+00  5.643350e-01 -6.263181e+01
2.251020408163265e+00  5.447696e-01 -6.561117e+01
2.261224489795918e+00  5.247192e-01 -6.873389e+01
2.271428571428571e+00  5.042455e-01 -7.201434e+01
2.281632653061225e+00  4.834240e-01 -7.546927e+01
2.291836734693878e+00  4.623464e-01 -7.911826e+01
2.302040816326531e+00  4.411226e-01 -8.298412e+01
2.312244897959184e+00  4.198831e-01 -8.709335e+01
2.322448979591837e+00  3.987819e-01 -9.147649e+01
2.332653061224490e+00  3.779996e-01 -9.616818e+01
2.342857142857143e+00  3.577468e-01 -1.012068e+02
2.353061224489796e+00  3.382670e-01 -1.066332e+02
2.363265306122449e+00  3.198388e-01 -1.124881e+02
2.373469387755102e+00  3.027758e-01 -1.188075e+02
2.383673469387755e+00  2.874216e-01 -1.256155e+02
2.393877551020408e+00  2.741381e-01 -1.329141e+02
2.404081632653062e+00  2.632833e-01 -1.406725e+02
2.414285714285714e+00  2.551788e-01 -1.488165e+02
2.424489795918368e+00  2.500693e-01 -1.572259e+02
2.434693877551021e+00  2.480839e-01 -1.657424e+02
2.444897959183674e+00  2.492109e-01 -1.741889e+02
2.455102040816327e+00  2.532965e-01  1.776034e+02
2.465306122448979e+00  2.600689e-01  1.697722e+02
2.475510204081633e+00  2.691786e-01  1.624104e+02
2.485714285714286e+00  2.802424e-01  1.555651e+02
2.495918367346939e+00  2.928796e-01  1.492454e+02
2.506122448979592e+00  3.067370e-01  1.434335e+02
2.516326530612245e+00  3.215015e-01  1.380956e+02
2.526530612244898e+00  3.369047e-01  1.331901e+02
2.536734693877551e+00  3.527217e-01  1.286735e+02
2.546938775510204e+00  3.687671e-01  1.245038e+02
2.557142857142857e+00  3.848900e-01  1.206425e+02
2.567346938775510e+00  4.009687e-01  1.170549e+02
2.577551020408163e+00  4.169063e-01  1.137103e+02
2.587755102040816e+00  4.326260e-01  1.105823e+02
2.597959183673470e+00  4.480681e-01  1.076476e+02
2.608163265306123e+00  4.631866e-01  1.048864e+02
2.618367346938776e+00  4.779469e-01  1.022813e+02
2.628571428571429e+00  4.923240e-01  9.981718e+01
2.638775510204082e+00  5.063003e-01  9.748112e+01
2.648979591836735e+00  5.198644e-01  9.526168e+01
2.659183673469388e+00  5.330102e-01  9.314889e+01
2.669387755102041e+00  5.457358e-01  9.113397e+01
2.679591836734694e+00  5.580424e-01  8.920918e+01
2.689795918367347e+00  5.699340e-01  8.736763e+01
2.700000000000000e+00  5.814167e-01  8.560319e+01
2.800000000000000e+00  6.743473e-01  7.146344e+01
2.933333333333334e+00  7.561448e-01  5.832537e+01
3.066666666666667e+00  8.083096e-01  4.884148e+01
3.200000000000000e+00  8.432164e-01  4.151487e+01
3.333333333333334e+00  8.676975e-01  3.556928e+01
3.466666666666667e+00  8.855886e-01  3.056100e+01
3.600000000000000e+00  8.991302e-01  2.621781e+01
3.733333333333334e+00  9.096856e-01  2.236275e+01
3.866666666666667e+00  9.181142e-01  1.887508e+01
4.000000000000000e+00  9.249699e-01  1.566865e+01
