# GHz S MA R 50
!  f         S11     S21     S12           S22
! GHz      MAG ANG MAG ANG MAG ANG    MAG       ANG
1.000E-01	0.000E+00	0.000E+00	0.000E+00	0.000E+00	0.000E+00	0.000E+00	1.000E+00	1.650E+02
1.800E-01	0.000E+00	0.000E+00	0.000E+00	0.000E+00	0.000E+00	0.000E+00	1.000E+00	1.530E+02
2.590E-01	0.000E+00	0.000E+00	0.000E+00	0.000E+00	0.000E+00	0.000E+00	1.000E+00	1.410E+02
3.390E-01	0.000E+00	0.000E+00	0.000E+00	0.000E+00	0.000E+00	0.000E+00	1.000E+00	1.300E+02
4.180E-01	0.000E+00	0.000E+00	0.000E+00	0.000E+00	0.000E+00	0.000E+00	1.000E+00	1.200E+02
4.980E-01	0.000E+00	0.000E+00	0.000E+00	0.000E+00	0.000E+00	0.000E+00	1.000E+00	1.100E+02
5.780E-01	0.000E+00	0.000E+00	0.000E+00	0.000E+00	0.000E+00	0.000E+00	1.000E+00	1.010E+02
6.570E-01	0.000E+00	0.000E+00	4.471E-02	0.000E+00	0.000E+00	0.000E+00	9.990E-01	9.270E+01
7.370E-01	0.000E+00	0.000E+00	4.471E-02	0.000E+00	0.000E+00	0.000E+00	9.990E-01	8.490E+01
8.160E-01	0.000E+00	0.000E+00	4.471E-02	0.000E+00	0.000E+00	0.000E+00	9.990E-01	7.760E+01
8.960E-01	0.000E+00	0.000E+00	6.321E-02	0.000E+00	0.000E+00	0.000E+00	9.980E-01	7.080E+01
9.760E-01	0.000E+00	0.000E+00	6.321E-02	0.000E+00	0.000E+00	0.000E+00	9.980E-01	6.440E+01
1.060E+00	0.000E+00	0.000E+00	7.740E-02	0.000E+00	0.000E+00	0.000E+00	9.970E-01	5.830E+01
1.130E+00	0.000E+00	0.000E+00	9.987E-02	0.000E+00	0.000E+00	0.000E+00	9.950E-01	5.250E+01
1.210E+00	0.000E+00	0.000E+00	1.094E-01	0.000E+00	0.000E+00	0.000E+00	9.940E-01	4.690E+01
1.290E+00	0.000E+00	0.000E+00	1.262E-01	0.000E+00	0.000E+00	0.000E+00	9.920E-01	4.150E+01
1.370E+00	0.000E+00	0.000E+00	1.479E-01	0.000E+00	0.000E+00	0.000E+00	9.890E-01	3.610E+01
1.450E+00	0.000E+00	0.000E+00	1.726E-01	0.000E+00	0.000E+00	0.000E+00	9.850E-01	3.080E+01
1.530E+00	0.000E+00	0.000E+00	2.039E-01	0.000E+00	0.000E+00	0.000E+00	9.790E-01	2.540E+01
1.610E+00	0.000E+00	0.000E+00	2.350E-01	0.000E+00	0.000E+00	0.000E+00	9.720E-01	1.970E+01
1.690E+00	0.000E+00	0.000E+00	2.730E-01	0.000E+00	0.000E+00	0.000E+00	9.620E-01	1.380E+01
1.770E+00	0.000E+00	0.000E+00	3.212E-01	0.000E+00	0.000E+00	0.000E+00	9.470E-01	7.310E+00
1.850E+00	0.000E+00	0.000E+00	3.751E-01	0.000E+00	0.000E+00	0.000E+00	9.270E-01	1.180E-01
1.930E+00	0.000E+00	0.000E+00	4.441E-01	0.000E+00	0.000E+00	0.000E+00	8.960E-01	-8.130E+00
2.010E+00	0.000E+00	0.000E+00	5.252E-01	0.000E+00	0.000E+00	0.000E+00	8.510E-01	-1.790E+01
2.090E+00	0.000E+00	0.000E+00	6.220E-01	0.000E+00	0.000E+00	0.000E+00	7.830E-01	-2.980E+01
2.170E+00	0.000E+00	0.000E+00	7.285E-01	0.000E+00	0.000E+00	0.000E+00	6.850E-01	-4.490E+01
2.250E+00	0.000E+00	0.000E+00	8.358E-01	0.000E+00	0.000E+00	0.000E+00	5.490E-01	-6.500E+01
2.330E+00	0.000E+00	0.000E+00	9.225E-01	0.000E+00	0.000E+00	0.000E+00	3.860E-01	-9.430E+01
2.410E+00	0.000E+00	0.000E+00	9.656E-01	0.000E+00	0.000E+00	0.000E+00	2.600E-01	-1.440E+02
2.490E+00	0.000E+00	0.000E+00	9.591E-01	0.000E+00	0.000E+00	0.000E+00	2.830E-01	1.540E+02
2.570E+00	0.000E+00	0.000E+00	9.161E-01	0.000E+00	0.000E+00	0.000E+00	4.010E-01	1.170E+02
2.650E+00	0.000E+00	0.000E+00	8.560E-01	0.000E+00	0.000E+00	0.000E+00	5.170E-01	9.570E+01
2.730E+00	0.000E+00	0.000E+00	7.932E-01	0.000E+00	0.000E+00	0.000E+00	6.090E-01	8.130E+01
2.810E+00	0.000E+00	0.000E+00	7.341E-01	0.000E+00	0.000E+00	0.000E+00	6.790E-01	7.070E+01
2.890E+00	0.000E+00	0.000E+00	6.824E-01	0.000E+00	0.000E+00	0.000E+00	7.310E-01	6.250E+01
2.970E+00	0.000E+00	0.000E+00	6.368E-01	0.000E+00	0.000E+00	0.000E+00	7.710E-01	5.580E+01
3.040E+00	0.000E+00	0.000E+00	5.987E-01	0.000E+00	0.000E+00	0.000E+00	8.010E-01	5.020E+01
3.120E+00	0.000E+00	0.000E+00	5.651E-01	0.000E+00	0.000E+00	0.000E+00	8.250E-01	4.550E+01
3.200E+00	0.000E+00	0.000E+00	5.363E-01	0.000E+00	0.000E+00	0.000E+00	8.440E-01	4.130E+01
3.280E+00	0.000E+00	0.000E+00	5.103E-01	0.000E+00	0.000E+00	0.000E+00	8.600E-01	3.770E+01
3.360E+00	0.000E+00	0.000E+00	4.895E-01	0.000E+00	0.000E+00	0.000E+00	8.720E-01	3.440E+01
3.440E+00	0.000E+00	0.000E+00	4.694E-01	0.000E+00	0.000E+00	0.000E+00	8.830E-01	3.140E+01
3.520E+00	0.000E+00	0.000E+00	4.520E-01	0.000E+00	0.000E+00	0.000E+00	8.920E-01	2.870E+01
3.600E+00	0.000E+00	0.000E+00	4.379E-01	0.000E+00	0.000E+00	0.000E+00	8.990E-01	2.620E+01
3.680E+00	0.000E+00	0.000E+00	4.233E-01	0.000E+00	0.000E+00	0.000E+00	9.060E-01	2.380E+01
3.760E+00	0.000E+00	0.000E+00	4.102E-01	0.000E+00	0.000E+00	0.000E+00	9.120E-01	2.160E+01
3.840E+00	0.000E+00	0.000E+00	3.989E-01	0.000E+00	0.000E+00	0.000E+00	9.170E-01	1.950E+01
3.920E+00	0.000E+00	0.000E+00	3.896E-01	0.000E+00	0.000E+00	0.000E+00	9.210E-01	1.760E+01
4.000E+00	0.000E+00	0.000E+00	3.800E-01	0.000E+00	0.000E+00	0.000E+00	9.250E-01	1.570E+01
