!Agilent Technologies,N5230C,MY49000812,A.09.42.18
!Agilent N5230C: A.09.42.18
!Date: Friday, September 06, 2013 15:54:24
!Correction: S11(Full 2 Port(1,2)) 
!S21(Full 2 Port(1,2)) 
!S12(Full 2 Port(1,2)) 
!S22(Full 2 Port(1,2)) 
!S2P File: Measurements: S11, S21, S12, S22:
# Hz S  dB   R 50
500000000 -0.99388087 -105.06013 -74.733391 -80.951965 -74.069977 -82.336769 -1.9792782 142.02155
549375000 -1.0640562 -109.45597 -74.442993 -91.0811 -73.791931 -92.4216 -2.0564904 140.8419
598750000 -1.1471469 -114.53539 -74.004105 -102.68007 -73.374962 -104.30299 -2.1356912 139.44881
648125000 -1.2420878 -120.28471 -73.427849 -115.87521 -72.869652 -117.16065 -2.2147493 137.83119
697500000 -1.3493093 -126.68444 -72.74865 -130.05739 -72.200203 -131.17322 -2.2950141 135.98936
746875000 -1.4694616 -133.72449 -71.892662 -145.67224 -71.382103 -146.40631 -2.3760939 133.91173
796250000 -1.6021767 -141.401 -70.923904 -162.75089 -70.435593 -163.06534 -2.457864 131.59192
845625000 -1.735497 -148.91702 -70.04631 -179.69769 -69.586243 -179.74417 -2.5125284 129.27614
895000000 -1.871729 -156.28221 -68.992638 166.0504 -68.609703 166.54468 -2.5491793 126.91759
944375000 -2.0092342 -163.51515 -67.629257 152.4039 -67.336044 153.65939 -2.5735195 124.49109
993750000 -2.1474009 -170.6071 -66.21521 139.01326 -65.983727 139.94118 -2.5906084 121.99912
1043125000 -2.2890284 -177.56328 -64.970192 126.015 -64.746712 126.69086 -2.6060486 119.46023
1092500000 -2.4340508 175.59709 -63.979431 112.7042 -63.780731 113.64041 -2.6212463 116.86646
1141875000 -2.5828106 168.88724 -63.101715 100.18167 -62.946594 101.75214 -2.6360495 114.24084
1191250000 -2.7383361 162.32869 -62.278393 88.513855 -62.108513 89.896721 -2.6535439 111.5998
1240625000 -2.8943367 155.89972 -61.62537 76.555176 -61.485241 78.031227 -2.6733334 108.93713
1290000000 -3.0546062 149.58763 -61.142353 65.528564 -61.030891 66.893784 -2.6949329 106.26885
1339375000 -3.2190478 143.4108 -60.773041 55.374386 -60.660049 56.566963 -2.7180719 103.60019
1388750000 -3.3900869 137.36475 -60.437019 45.758038 -60.318401 47.022476 -2.7449408 100.92895
1438125000 -3.5653582 131.45033 -60.162239 36.451576 -60.043159 37.842445 -2.7730279 98.256836
1487500000 -3.7439032 125.67818 -59.958809 27.748096 -59.8312 29.203136 -2.8016789 95.59198
1536875000 -3.9257503 120.05585 -59.798073 19.409964 -59.663952 20.909634 -2.832226 92.933632
1586250000 -4.1098933 114.57233 -59.661278 11.501673 -59.525036 13.090841 -2.8646843 90.276596
1635625000 -4.2943244 109.22787 -59.531372 3.9352217 -59.398716 5.4838495 -2.8961079 87.627724
1685000000 -4.4765825 104.0267 -59.437191 -3.4792638 -59.284492 -2.0089858 -2.9292181 84.988045
1734375000 -4.6568103 98.947006 -59.446915 -10.753702 -59.267944 -9.1062222 -2.9629507 82.365662
1783750000 -4.8404446 93.985664 -59.391117 -17.278597 -59.217022 -15.618735 -2.9963844 79.749657
1833125000 -5.0205288 89.162048 -59.34687 -23.731802 -59.13588 -22.06831 -3.0298085 77.136375
1882500000 -5.1980729 84.488998 -59.288212 -29.957462 -59.075287 -28.419128 -3.062902 74.549789
1931875000 -5.3700218 79.922134 -59.252853 -36.634514 -59.050278 -35.103436 -3.0956657 71.97229
1981250000 -5.5381517 75.459091 -59.33773 -42.971157 -59.115356 -41.642872 -3.1277263 69.398392
2030625000 -5.7014608 71.140427 -59.442997 -48.882755 -59.217258 -47.511993 -3.1575437 66.83918
2080000000 -5.8589211 66.964157 -59.540478 -54.263474 -59.326664 -52.921837 -3.1877186 64.300522
2129375000 -5.9962072 62.89185 -59.558887 -59.529793 -59.329544 -58.274162 -3.2167473 61.761261
2178750000 -6.1185832 58.818298 -59.633747 -65.613533 -59.396248 -64.447586 -3.2431827 59.224358
2228125000 -6.2468767 54.827141 -59.918739 -71.75676 -59.655468 -70.47084 -3.2680161 56.715382
2277500000 -6.3650947 50.949715 -60.337795 -76.053337 -60.060699 -74.738434 -3.2934237 54.201481
2326875000 -6.4540987 47.131611 -60.568069 -78.596741 -60.269669 -77.519791 -3.3154638 51.681068
2376250000 -6.5303025 43.253727 -60.582264 -81.713867 -60.28968 -80.607597 -3.3349411 49.183975
2425625000 -6.6110778 39.298306 -60.564991 -85.43438 -60.29805 -84.164001 -3.3556905 46.68988
2475000000 -6.6938462 35.342167 -60.554066 -88.714478 -60.267769 -87.527672 -3.3735452 44.174534
2524375000 -6.778698 31.438862 -60.449642 -92.292389 -60.16053 -91.190063 -3.3881979 41.670547
2573750000 -6.8682332 27.537207 -60.340584 -96.43232 -60.057034 -95.368904 -3.4038894 39.187042
2623125000 -6.9594145 23.61017 -60.291489 -100.74184 -59.991722 -99.754631 -3.4180181 36.678284
2672500000 -7.0625186 19.725195 -60.337231 -104.87687 -60.043209 -103.897 -3.428103 34.163574
2721875000 -7.1766129 15.990146 -60.32523 -107.94557 -60.046589 -106.9278 -3.4384296 31.680826
2771250000 -7.2807107 12.275454 -60.093452 -110.88804 -59.833939 -109.98207 -3.4489262 29.177147
2820625000 -7.3851199 8.5606661 -59.714779 -115.43742 -59.484127 -114.66815 -3.4562171 26.65243
2870000000 -7.5116382 4.9196653 -59.524384 -121.6218 -59.309029 -120.63527 -3.4620833 24.155306
2919375000 -7.646512 1.4373466 -59.551224 -127.2108 -59.339451 -126.36672 -3.46838 21.659714
2968750000 -7.7684784 -1.9031717 -59.620247 -132.38463 -59.396767 -131.64708 -3.473105 19.133898
3018125000 -7.8818703 -5.1333132 -59.706966 -137.4892 -59.500946 -136.68768 -3.4752038 16.624086
3067500000 -7.9889121 -8.3223553 -59.828526 -142.22066 -59.642014 -141.38469 -3.4772253 14.121952
3116875000 -8.0857439 -11.473783 -59.960369 -146.63542 -59.773327 -145.95102 -3.4792285 11.601321
3166250000 -8.1750841 -14.563497 -60.076809 -151.25943 -59.89093 -150.43562 -3.4789393 9.0684099
3215625000 -8.2632656 -17.623894 -60.211452 -155.73125 -60.009468 -155.02086 -3.4780223 6.5593281
3265000000 -8.3448944 -20.67255 -60.345993 -160.05659 -60.117989 -159.46158 -3.4760668 4.037755
3314375000 -8.4205942 -23.669174 -60.507175 -164.30133 -60.268932 -163.82767 -3.4738214 1.4980046
3363750000 -8.4955463 -26.631599 -60.685196 -168.60707 -60.428387 -168.06566 -3.469316 -1.0319448
3413125000 -8.5665941 -29.582588 -60.889496 -172.75687 -60.628761 -172.25813 -3.4641557 -3.5570958
3462500000 -8.6321058 -32.496334 -61.077431 -176.66626 -60.817234 -176.02121 -3.459861 -6.105062
3511875000 -8.6950417 -35.365414 -61.282265 179.73814 -61.019234 -179.72588 -3.4538684 -8.6572208
3561250000 -8.7550278 -38.236279 -61.465794 176.25906 -61.214729 176.70285 -3.4465151 -11.201538
3610625000 -8.8110456 -41.093544 -61.616772 172.80933 -61.362072 173.11833 -3.4388833 -13.745033
3660000000 -8.867074 -43.915157 -61.772503 169.24539 -61.518105 169.65483 -3.4327786 -16.312944
3709375000 -8.9231386 -46.720028 -61.899372 165.83644 -61.651188 166.19586 -3.4239578 -18.86569
3758750000 -8.9753036 -49.5037 -62.017532 162.45891 -61.80022 162.7646 -3.4132214 -21.420805
3808125000 -9.0261574 -52.245998 -62.154541 158.98865 -61.951283 159.28558 -3.4067457 -23.98951
3857500000 -9.0769043 -54.970867 -62.294659 155.61436 -62.102032 155.98091 -3.3979936 -26.564062
3906875000 -9.1244469 -57.684631 -62.432095 152.5061 -62.227135 152.68199 -3.3860564 -29.125278
3956250000 -9.1706867 -60.366135 -62.538376 149.18082 -62.334797 149.31958 -3.3768146 -31.694029
4005625000 -9.2174673 -63.03014 -62.671852 145.71687 -62.455612 145.79195 -3.3688233 -34.273468
4055000000 -9.2636251 -65.687721 -62.765385 142.34668 -62.593765 142.4429 -3.3568053 -36.85104
4104375000 -9.3087778 -68.299652 -62.885853 139.02324 -62.705055 139.10023 -3.3441403 -39.416512
4153750000 -9.3527193 -70.86985 -63.011623 135.70517 -62.836792 135.93159 -3.3365397 -41.997341
4203125000 -9.3932095 -73.430603 -63.127838 132.60986 -62.936375 132.64799 -3.3257039 -44.582325
4252500000 -9.429884 -75.968147 -63.258633 129.56247 -63.060509 129.31868 -3.3114767 -47.158779
4301875000 -9.46626 -78.485245 -63.399792 126.36118 -63.202488 126.15295 -3.3022282 -49.733261
4351250000 -9.50105 -81.000473 -63.524715 123.29481 -63.339184 122.93898 -3.2932212 -52.3228
4400625000 -9.5326872 -83.499939 -63.661785 120.18464 -63.470657 119.69601 -3.2791977 -54.903191
4450000000 -9.5644999 -85.976433 -63.783833 116.73606 -63.629135 116.60994 -3.2676275 -57.478214
4499375000 -9.5955849 -88.445534 -63.931641 113.75819 -63.779385 113.48554 -3.2599783 -60.064396
4548750000 -9.6246281 -90.89959 -64.060265 110.78497 -63.935173 110.3048 -3.2475395 -62.651825
4598125000 -9.6525259 -93.329941 -64.237167 107.75426 -64.072433 107.339 -3.2334454 -65.226463
4647500000 -9.6806345 -95.747772 -64.391052 104.92741 -64.212837 104.3209 -3.2263885 -67.804581
4696875000 -9.7062206 -98.157913 -64.538177 101.92677 -64.379814 101.27111 -3.2169831 -70.390007
4746250000 -9.7299786 -100.5461 -64.647667 98.799026 -64.517899 98.329941 -3.2020974 -72.971832
4795625000 -9.75424 -102.92731 -64.788239 95.705803 -64.662933 95.400208 -3.1932619 -75.542923
4845000000 -9.7768316 -105.29916 -64.925034 92.71418 -64.78508 92.272568 -3.1865406 -78.121559
4894375000 -9.7985678 -107.65163 -65.068169 89.661583 -64.933586 89.340828 -3.1734138 -80.710052
4943750000 -9.8201857 -109.99039 -65.257256 86.882538 -65.089867 86.635422 -3.1619658 -83.280693
4993125000 -9.8396101 -112.31229 -65.38842 84.153595 -65.248306 83.820068 -3.1559072 -85.846062
5042500000 -9.8581419 -114.61937 -65.497131 81.332886 -65.384476 81.283905 -3.1455655 -88.420448
5091875000 -9.8757381 -116.91828 -65.661446 78.475456 -65.471207 78.665222 -3.1326582 -90.995384
5141250000 -9.891551 -119.20789 -65.793976 75.683548 -65.602882 75.801109 -3.125891 -93.551453
5190625000 -9.9068813 -121.47922 -65.927689 72.75428 -65.716568 73.120834 -3.1181993 -96.115555
5240000000 -9.9226255 -123.74575 -66.059692 70.001892 -65.834679 70.384689 -3.1057274 -98.691826
5289375000 -9.9365606 -126.00947 -66.206154 67.396736 -65.977913 67.729012 -3.097033 -101.24447
5338750000 -9.9487009 -128.24242 -66.297234 64.892998 -66.095802 65.260445 -3.0907605 -103.79308
5388125000 -9.9622946 -130.46107 -66.395546 62.270493 -66.217934 62.83009 -3.0808644 -106.35744
5437500000 -9.9738226 -132.68907 -66.51947 59.61644 -66.327751 60.346355 -3.0703197 -108.90668
5486875000 -9.9828939 -134.89145 -66.549438 56.792553 -66.427185 57.543209 -3.0647423 -111.43999
5536250000 -9.9938459 -137.0764 -66.663498 54.487175 -66.477074 54.609962 -3.0570409 -113.9842
5585625000 -10.004551 -139.27469 -66.790833 51.974072 -66.577431 51.715145 -3.0467291 -116.5388
5635000000 -10.010819 -141.46222 -66.850685 49.404076 -66.682137 49.022533 -3.0399346 -119.06673
5684375000 -10.018322 -143.61349 -66.925323 46.673759 -66.772644 46.422443 -3.0340934 -121.58961
5733750000 -10.027841 -145.78499 -67.014793 44.065647 -66.903824 43.742817 -3.0250113 -124.13492
5783125000 -10.032993 -147.96672 -67.122986 41.552521 -66.992813 41.230972 -3.0169404 -126.66074
5832500000 -10.037566 -150.10886 -67.227379 39.085857 -67.06604 38.57901 -3.0114396 -129.16563
5881875000 -10.047864 -152.25105 -67.352608 36.100143 -67.134033 35.995514 -3.004823 -131.68896
5931250000 -10.055081 -154.41911 -67.472359 33.557751 -67.230125 33.218224 -2.996187 -134.21317
5980625000 -10.058284 -156.55292 -67.573929 30.91386 -67.294128 30.193941 -2.9903851 -136.70717
6030000000 -10.065329 -158.67278 -67.666237 27.943529 -67.424675 27.498039 -2.9847193 -139.205
6079375000 -10.074454 -160.83267 -67.744781 25.017578 -67.550911 24.715769 -2.9775543 -141.72234
6128750000 -10.079748 -162.9818 -67.869659 22.060816 -67.658562 22.125168 -2.9709516 -144.21149
6178125000 -10.088442 -165.08447 -68.018066 19.161842 -67.822708 19.51396 -2.9659121 -146.68417
6227500000 -10.101737 -167.20679 -68.126198 16.886038 -67.922218 16.923637 -2.9601102 -149.18126
6276875000 -10.109583 -169.33582 -68.279251 14.350754 -68.018921 14.27999 -2.9532683 -151.66621
6326250000 -10.116133 -171.416 -68.372192 11.790341 -68.121429 11.557973 -2.9484007 -154.12195
6375625000 -10.127171 -173.49567 -68.50634 8.9736824 -68.270538 8.8370008 -2.9441924 -156.59286
6425000000 -10.134706 -175.61252 -68.589485 6.374608 -68.413078 5.8939991 -2.9375989 -159.0737
6474375000 -10.13891 -177.70329 -68.690811 3.6790545 -68.560944 3.3178456 -2.9323912 -161.52
6523750000 -10.149749 -179.77548 -68.788475 0.92652583 -68.757172 0.84979886 -2.9286072 -163.96097
6573125000 -10.163414 178.12193 -68.913109 -1.0688295 -68.867767 -1.5899572 -2.9238169 -166.4277
6622500000 -10.170601 176.04019 -69.042526 -3.291482 -69.028671 -3.8594162 -2.9181392 -168.86948
6671875000 -10.177865 174.00671 -69.137428 -5.7439742 -69.149017 -6.1165361 -2.9147704 -171.28967
6721250000 -10.189946 171.95226 -69.230293 -7.7940536 -69.256264 -8.6879206 -2.9113383 -173.7299
6770625000 -10.196321 169.87001 -69.368042 -10.28914 -69.390793 -11.083908 -2.9067256 -176.16933
6820000000 -10.200442 167.82712 -69.458374 -12.916082 -69.477859 -13.493805 -2.902633 -178.57776
6869375000 -10.210079 165.79637 -69.53215 -15.573272 -69.60218 -15.813399 -2.8997731 179.00528
6918750000 -10.219707 163.73125 -69.558205 -17.820862 -69.707108 -18.093695 -2.8954651 176.57373
6968125000 -10.22439 161.68495 -69.684822 -19.847792 -69.843475 -20.423609 -2.8916252 174.17271
7017500000 -10.230994 159.67136 -69.7724 -22.483618 -69.923943 -22.938673 -2.8889749 171.77859
7066875000 -10.238855 157.64206 -69.865959 -24.766766 -69.979729 -25.416859 -2.8861074 169.3607
7116250000 -10.241426 155.60204 -69.948364 -27.44244 -69.996895 -28.044167 -2.8820431 166.96001
7165625000 -10.242947 153.58553 -70.089912 -30.439466 -70.063988 -30.613314 -2.8794105 164.57895
7215000000 -10.248099 151.56023 -70.214264 -32.905231 -70.126823 -33.647602 -2.8765996 162.18071
7264375000 -10.250467 149.50653 -70.279747 -35.346096 -70.201622 -35.982555 -2.8734996 159.77985
7313750000 -10.250981 147.46515 -70.419121 -38.106167 -70.30481 -38.437107 -2.8696179 157.40686
7363125000 -10.254965 145.43312 -70.505814 -40.414928 -70.449692 -40.972042 -2.8679097 155.03296
7412500000 -10.261288 143.37479 -70.63459 -42.964134 -70.528214 -43.906414 -2.8653197 152.64221
7461875000 -10.266201 141.31825 -70.823784 -45.648544 -70.631897 -46.620445 -2.8619266 150.27756
7511250000 -10.272572 139.28828 -70.920082 -48.13076 -70.70816 -49.468464 -2.8599823 147.91945
7560625000 -10.281999 137.25858 -71.041939 -50.342251 -70.76403 -51.726982 -2.8579187 145.54552
7610000000 -10.289944 135.21524 -71.127708 -52.913303 -70.823853 -53.786072 -2.8547196 143.18234
7659375000 -10.296406 133.1888 -71.223221 -55.266586 -70.95253 -56.20639 -2.8523393 140.84067
7708750000 -10.305315 131.17212 -71.276062 -57.169441 -71.043655 -58.251118 -2.8511133 138.48615
7758125000 -10.315769 129.13867 -71.276543 -59.540455 -71.132324 -60.332024 -2.8485751 136.12772
7807500000 -10.325008 127.10409 -71.331589 -62.02673 -71.208916 -62.392677 -2.8453484 133.79044
7856875000 -10.335777 125.09798 -71.307877 -64.403572 -71.285286 -65.019485 -2.8449709 131.45799
7906250000 -10.348864 123.08703 -71.353088 -66.954956 -71.272194 -67.884651 -2.843082 129.10551
7955625000 -10.359913 121.05792 -71.442955 -69.405319 -71.327202 -69.854744 -2.8401289 126.77745
8005000000 -10.367953 119.04453 -71.448021 -71.677116 -71.356056 -72.601318 -2.8396134 124.45551
8054375000 -10.37984 117.03267 -71.495132 -74.730003 -71.42968 -74.841522 -2.837939 122.12476
8103750000 -10.393682 114.98785 -71.528557 -77.208015 -71.601471 -77.932869 -2.8352351 119.79662
8153125000 -10.40558 112.94662 -71.690544 -79.317352 -71.737038 -80.591492 -2.8340991 117.48685
8202500000 -10.420655 110.92927 -71.792664 -81.986588 -71.873619 -83.355553 -2.8331628 115.16613
8251875000 -10.439493 108.89251 -71.896744 -84.861954 -71.956039 -85.786873 -2.8305609 112.84418
8301250000 -10.455164 106.84529 -72.022118 -87.236259 -72.103859 -88.288528 -2.8289802 110.54045
8350625000 -10.469443 104.82434 -72.176529 -89.900993 -72.209679 -91.105637 -2.8283348 108.23849
8400000000 -10.487618 102.79285 -72.30854 -92.314171 -72.23484 -93.214485 -2.8256619 105.91949
8449375000 -10.50502 100.73182 -72.423828 -94.551636 -72.414894 -94.836472 -2.8233764 103.61845
8498750000 -10.520242 98.687698 -72.512817 -96.507866 -72.544762 -97.302383 -2.8225675 101.31318
8548125000 -10.540046 96.643829 -72.638603 -99.028435 -72.678215 -99.103027 -2.8201241 99.007294
8597500000 -10.560546 94.566177 -72.761223 -100.77084 -72.71788 -100.8818 -2.8178053 96.696892
8646875000 -10.5781 92.489716 -72.824051 -103.27421 -72.661018 -102.85619 -2.8166559 94.397682
8696250000 -10.599136 90.431274 -72.827652 -105.63303 -72.669334 -105.25843 -2.8144968 92.096153
8745625000 -10.622441 88.34127 -72.890808 -107.89704 -72.638039 -106.94726 -2.81249 89.789467
8795000000 -10.642712 86.23877 -72.929642 -110.16724 -72.681259 -109.46828 -2.8109958 87.487511
8844375000 -10.664285 84.153641 -72.971153 -112.74174 -72.718704 -111.92533 -2.8092155 85.189941
8893750000 -10.692142 82.040367 -73.058968 -115.14411 -72.761833 -114.39634 -2.8072619 82.880333
8943125000 -10.718358 79.892174 -73.101082 -117.22834 -72.849976 -116.8502 -2.8057349 80.573036
8992500000 -10.745646 77.757172 -73.190796 -119.61824 -72.888443 -119.02508 -2.8042276 78.273376
9041875000 -10.780264 75.620949 -73.269615 -121.84245 -72.93251 -121.05725 -2.8025165 75.970688
9091250000 -10.816916 73.4571 -73.314186 -123.70084 -72.91993 -122.99203 -2.8013644 73.650185
9140625000 -10.852223 71.322441 -73.262489 -125.82051 -72.898499 -125.35154 -2.8000417 71.346764
9190000000 -10.892604 69.219406 -73.252342 -127.80459 -72.857216 -127.1677 -2.7983811 69.035934
9239375000 -10.934486 67.083656 -73.179726 -130.40691 -72.790283 -129.44083 -2.7977788 66.706169
9288750000 -10.97045 64.952301 -73.085594 -133.19301 -72.789764 -132.67751 -2.7957788 64.383385
9338125000 -11.00809 62.850075 -73.020096 -136.09787 -72.812958 -135.57571 -2.794692 62.071339
9387500000 -11.051441 60.713253 -73.01329 -138.95457 -72.788452 -138.38527 -2.7945845 59.736084
9436875000 -11.089364 58.552959 -72.930328 -142.12697 -72.749268 -141.47008 -2.793582 57.396492
9486250000 -11.125713 56.43647 -72.949959 -145.8671 -72.737457 -144.64597 -2.7928042 55.071873
9535625000 -11.168452 54.316814 -72.940872 -148.72874 -72.814392 -148.11476 -2.7933044 52.734741
9585000000 -11.208827 52.144054 -72.966591 -151.64668 -72.835724 -151.43669 -2.7930827 50.380268
9634375000 -11.24197 49.98534 -73.003639 -155.01601 -72.889771 -154.80193 -2.7923143 48.039715
9683750000 -11.279704 47.835106 -73.118484 -158.43619 -73.034027 -157.93199 -2.7931437 45.698509
9733125000 -11.320938 45.61591 -73.2575 -161.81429 -73.205887 -161.23637 -2.7943323 43.340477
9782500000 -11.357258 43.362312 -73.356918 -164.62698 -73.341385 -164.17169 -2.7948596 40.983879
9831875000 -11.397759 41.129913 -73.508896 -167.63023 -73.367271 -166.81956 -2.7962744 38.634804
9881250000 -11.446583 38.8605 -73.676208 -169.97462 -73.382149 -169.71175 -2.7980256 36.260071
9930625000 -11.494087 36.547798 -73.740242 -172.58409 -73.466591 -172.38013 -2.7996864 33.883301
9980000000 -11.541773 34.251781 -73.822113 -175.05498 -73.538559 -174.54175 -2.8017805 31.522448
10029375000 -11.596929 31.938423 -73.823555 -177.0865 -73.634041 -177.19014 -2.80423 29.145134
10078750000 -11.652163 29.58337 -73.813141 -179.85107 -73.612793 -179.40891 -2.8070881 26.748602
10128125000 -11.705009 27.237572 -73.844086 177.29597 -73.635529 178.18213 -2.8098278 24.371492
10177500000 -11.764699 24.900795 -73.856796 174.99391 -73.636398 175.75732 -2.8137326 21.987629
10226875000 -11.828712 22.516153 -73.907959 173.04137 -73.640228 173.27374 -2.8182023 19.578005
10276250000 -11.887943 20.122828 -74.040222 170.6443 -73.549606 170.91559 -2.8216565 17.172365
10325625000 -11.950179 17.75823 -74.234589 169.52075 -73.705338 168.71838 -2.8252237 14.775962
10375000000 -12.020557 15.366303 -74.095207 167.69725 -73.847816 167.61342 -2.8306201 12.359446
10424375000 -12.091125 12.925334 -74.130135 164.18549 -73.817978 165.4227 -2.835382 9.9324245
10473750000 -12.158784 10.491816 -74.30481 161.10274 -73.702087 162.25804 -2.8404777 7.518043
10523125000 -12.232105 8.0710583 -74.568939 159.11156 -74.072128 159.55772 -2.8458228 5.0887098
10572500000 -12.311978 5.6156173 -74.550331 156.43204 -73.859535 157.50159 -2.85268 2.6443129
