!Agilent Technologies,N5230C,MY49000812,A.09.42.18
!Agilent N5230C: A.09.42.18
!Date: Friday, September 06, 2013 15:52:46
!Correction: S11(Full 2 Port(1,2)) 
!S21(Full 2 Port(1,2)) 
!S12(Full 2 Port(1,2)) 
!S22(Full 2 Port(1,2)) 
!S2P File: Measurements: S11, S21, S12, S22:
# Hz S  dB   R 50
500000000 -0.9048934 -103.2066 -27.015772 102.81869 -26.994106 102.68391 -0.94028157 135.35341
549375000 -0.953857 -107.23706 -25.974785 99.98938 -25.956242 99.878098 -0.95424849 132.88326
598750000 -1.0102636 -111.87792 -24.839748 96.660713 -24.82378 96.584801 -0.97020966 130.01195
648125000 -1.0733459 -117.11302 -23.620966 92.8591 -23.606464 92.808022 -0.9883647 126.74671
697500000 -1.1428453 -122.92181 -22.325047 88.583107 -22.313183 88.557495 -1.0098962 123.08568
746875000 -1.2194419 -129.29129 -20.959496 83.840286 -20.949722 83.835854 -1.0340147 119.02579
796250000 -1.3020126 -136.2197 -19.531635 78.634377 -19.522627 78.648247 -1.0609466 114.57512
845625000 -1.3809528 -142.95662 -18.324345 73.360611 -18.314423 73.355164 -1.0898021 110.1661
895000000 -1.459242 -149.51776 -17.277077 68.062988 -17.265953 68.068993 -1.1199014 105.783
944375000 -1.5344769 -155.91785 -16.353622 62.821644 -16.341639 62.837727 -1.1505945 101.43383
993750000 -1.60595 -162.16168 -15.528576 57.676025 -15.516119 57.693993 -1.1827996 97.110779
1043125000 -1.6777911 -168.2455 -14.782541 52.614464 -14.769409 52.63343 -1.2154175 92.799141
1092500000 -1.7482498 -174.1916 -14.103501 47.618332 -14.089264 47.637379 -1.2492439 88.503075
1141875000 -1.8168247 -179.99654 -13.48129 42.704647 -13.467037 42.709633 -1.2843623 84.226715
1191250000 -1.8836517 174.33293 -12.907044 37.850292 -12.893213 37.859379 -1.3208253 79.962334
1240625000 -1.9491737 168.77701 -12.377181 33.065971 -12.361944 33.076759 -1.3583958 75.715431
1290000000 -2.0133362 163.33305 -11.884869 28.353981 -11.869606 28.369923 -1.3965406 71.486267
1339375000 -2.0757148 158.00342 -11.424158 23.699953 -11.409786 23.729149 -1.4353853 67.265518
1388750000 -2.1378214 152.77299 -10.993668 19.104759 -10.978853 19.146051 -1.4750837 63.0583
1438125000 -2.1987658 147.63455 -10.588173 14.569301 -10.573425 14.616112 -1.5155078 58.856205
1487500000 -2.2591217 142.5847 -10.208501 10.075686 -10.192222 10.132629 -1.5567418 54.66338
1536875000 -2.319098 137.62646 -9.8498402 5.6309652 -9.8326645 5.6920495 -1.5986466 50.483372
1586250000 -2.3774068 132.73769 -9.5103178 1.2267967 -9.4936848 1.2970346 -1.643528 46.310341
1635625000 -2.4351563 127.91971 -9.1888609 -3.1261194 -9.1722279 -3.0499201 -1.6883968 42.14307
1685000000 -2.4916837 123.16961 -8.8841496 -7.4412575 -8.8668947 -7.355536 -1.7352378 37.994083
1734375000 -2.5484591 118.48666 -8.5938482 -11.718082 -8.5770226 -11.625252 -1.7841643 33.859085
1783750000 -2.6072319 113.86561 -8.3167171 -15.958755 -8.3009415 -15.868505 -1.8336201 29.715902
1833125000 -2.6644707 109.29713 -8.0536413 -20.181551 -8.0378942 -20.086168 -1.8842705 25.589575
1882500000 -2.7230461 104.79609 -7.8033357 -24.359974 -7.7875128 -24.264662 -1.9373146 21.489334
1931875000 -2.7832751 100.34454 -7.5640883 -28.522219 -7.548574 -28.424522 -1.9930731 17.384102
1981250000 -2.8427529 95.941887 -7.3365812 -32.652271 -7.3208208 -32.555305 -2.0480304 13.292257
2030625000 -2.900924 91.597473 -7.1181684 -36.754543 -7.1028094 -36.656887 -2.1049683 9.2275743
2080000000 -2.9614484 87.304001 -6.9094839 -40.825474 -6.8947458 -40.729939 -2.164767 5.1700044
2129375000 -3.0234814 83.049896 -6.710629 -44.874908 -6.6947756 -44.781994 -2.2234669 1.1110038
2178750000 -3.0831978 78.839264 -6.5209074 -48.908062 -6.5054502 -48.811802 -2.2843602 -2.9151933
2228125000 -3.1456277 74.686241 -6.3385215 -52.905903 -6.3229489 -52.811226 -2.3480625 -6.9264307
2277500000 -3.2091117 70.561333 -6.1644917 -56.886425 -6.1483016 -56.796566 -2.4122996 -10.939964
2326875000 -3.2695358 66.475426 -5.9987764 -60.850834 -5.9819064 -60.756268 -2.4765539 -14.919901
2376250000 -3.3302836 62.444611 -5.8388081 -64.777016 -5.8223481 -64.683487 -2.5433812 -18.872627
2425625000 -3.3933542 58.441525 -5.6849108 -68.693031 -5.6683903 -68.603989 -2.6120307 -22.837048
2475000000 -3.4543624 54.467712 -5.5375381 -72.586563 -5.5216537 -72.502312 -2.6795495 -26.78809
2524375000 -3.5148239 50.543892 -5.3965092 -76.457458 -5.3813138 -76.374245 -2.7498035 -30.697638
2573750000 -3.5784678 46.651596 -5.2602477 -80.313805 -5.2448092 -80.228775 -2.8241098 -34.60783
2623125000 -3.6408827 42.773487 -5.1299834 -84.161369 -5.1149654 -84.07653 -2.8973851 -38.513058
2672500000 -3.7000918 38.937149 -5.0060968 -87.982735 -4.991993 -87.892853 -2.9725132 -42.363548
2721875000 -3.7631197 35.145287 -4.8862915 -91.774208 -4.8723493 -91.686348 -3.04988 -46.195618
2771250000 -3.8254824 31.364656 -4.7711306 -95.561752 -4.7583547 -95.472252 -3.1273618 -50.034931
2820625000 -3.885366 27.612663 -4.6619868 -99.324493 -4.6494999 -99.230545 -3.2030842 -53.842876
2870000000 -3.9463453 23.899542 -4.5558329 -103.05922 -4.5435114 -102.95811 -3.2808573 -57.610973
2919375000 -4.0091791 20.204466 -4.4526877 -106.79076 -4.4403701 -106.68195 -3.3617926 -61.39246
2968750000 -4.0688438 16.52718 -4.3550677 -110.50375 -4.3438869 -110.38808 -3.4409997 -65.154869
3018125000 -4.1278505 12.887867 -4.2601194 -114.1898 -4.249403 -114.06696 -3.5202284 -68.875397
3067500000 -4.1895227 9.2648649 -4.1681395 -117.86443 -4.1577177 -117.74021 -3.6040652 -72.5886
3116875000 -4.249629 5.6565523 -4.080441 -121.52304 -4.0710616 -121.39272 -3.685183 -76.297432
3166250000 -4.3063431 2.0782554 -3.996532 -125.15993 -3.9871449 -125.02113 -3.767139 -79.970802
3215625000 -4.3677607 -1.4829229 -3.9132621 -128.77594 -3.9038424 -128.63632 -3.849669 -83.62693
3265000000 -4.4269266 -5.032198 -3.8335426 -132.39607 -3.8235912 -132.25136 -3.9352343 -87.294388
3314375000 -4.4836707 -8.5658169 -3.7570043 -135.98827 -3.7463019 -135.84186 -4.0195012 -90.934227
3363750000 -4.5424252 -12.074895 -3.6809971 -139.56943 -3.6705155 -139.41966 -4.1054778 -94.544556
3413125000 -4.6030045 -15.577428 -3.6071088 -143.15073 -3.5962791 -142.99992 -4.1959076 -98.15638
3462500000 -4.6607537 -19.067825 -3.5388122 -146.71732 -3.5272141 -146.56589 -4.2849202 -101.75397
3511875000 -4.7198539 -22.531315 -3.4711661 -150.26315 -3.4581943 -150.10771 -4.3742495 -105.31505
3561250000 -4.781744 -25.991022 -3.4050219 -153.8058 -3.3916619 -153.64474 -4.4662337 -108.85106
3610625000 -4.8411679 -29.432276 -3.3421037 -157.34457 -3.3283563 -157.17036 -4.5610971 -112.39056
3660000000 -4.9002514 -32.861523 -3.28229 -160.8568 -3.2664402 -160.68341 -4.6541748 -115.90995
3709375000 -4.9650393 -36.275921 -3.2212071 -164.35912 -3.2045288 -164.18361 -4.7468543 -119.3995
3758750000 -5.0260806 -39.675915 -3.1643374 -167.86281 -3.1465869 -167.68431 -4.8456612 -122.87659
3808125000 -5.0873141 -43.064827 -3.109453 -171.3401 -3.0904984 -171.15633 -4.9428167 -126.34861
3857500000 -5.1519799 -46.444214 -3.0550637 -174.81651 -3.035249 -174.62442 -5.0388455 -129.7906
3906875000 -5.217958 -49.807991 -3.0022674 -178.28925 -2.9813943 -178.09499 -5.1400361 -133.20636
3956250000 -5.2807021 -53.152927 -2.9530485 178.25922 -2.9316559 178.45421 -5.2434187 -136.6292
4005625000 -5.3476653 -56.497379 -2.9024854 174.82173 -2.8807356 175.01349 -5.3447323 -140.03929
4055000000 -5.416822 -59.835793 -2.8536832 171.38162 -2.8318601 171.57779 -5.4460754 -143.39948
4104375000 -5.4831982 -63.142963 -2.8078175 167.95367 -2.785291 168.14461 -5.5561996 -146.76344
4153750000 -5.5524869 -66.46212 -2.7630763 164.54765 -2.739495 164.73544 -5.6632037 -150.12949
4203125000 -5.6252193 -69.769119 -2.7167442 161.13652 -2.6937089 161.32245 -5.7681699 -153.45345
4252500000 -5.6947694 -73.047455 -2.6745722 157.73421 -2.6513431 157.91174 -5.8815799 -156.75893
4301875000 -5.7660661 -76.333855 -2.6322632 154.34387 -2.6096234 154.5209 -5.9971356 -160.08266
4351250000 -5.8422751 -79.624397 -2.5903563 150.96049 -2.5680304 151.13147 -6.1075988 -163.38052
4400625000 -5.9173841 -82.874794 -2.5495305 147.58038 -2.5274208 147.74649 -6.2231245 -166.64038
4450000000 -5.9918113 -86.12764 -2.5115154 144.21541 -2.4901602 144.37474 -6.3447614 -169.90398
4499375000 -6.0716486 -89.400658 -2.4722588 140.85365 -2.4517095 141.01404 -6.4634323 -173.16705
4548750000 -6.1534972 -92.64476 -2.434463 137.49113 -2.4144549 137.65532 -6.5808368 -176.38374
4598125000 -6.2334361 -95.867035 -2.3988292 134.13501 -2.3792591 134.29767 -6.7099524 -179.59752
4647500000 -6.3182526 -99.124756 -2.3643448 130.79417 -2.3442917 130.96021 -6.8367443 177.17615
4696875000 -6.4071455 -102.35718 -2.328527 127.45213 -2.3089247 127.61523 -6.9585156 173.97585
4746250000 -6.4926109 -105.55809 -2.2951257 124.11033 -2.2766931 124.27873 -7.0911489 170.81897
4795625000 -6.5816302 -108.7959 -2.262558 120.78316 -2.2451193 120.95686 -7.2265458 167.64542
4845000000 -6.6766558 -112.01421 -2.2298295 117.45973 -2.2127018 117.63878 -7.3562007 164.47252
4894375000 -6.7704782 -115.20055 -2.198602 114.13556 -2.1819804 114.31779 -7.4906068 161.35318
4943750000 -6.8658648 -118.41759 -2.168772 110.82087 -2.1528828 111.005 -7.6338739 158.2375
4993125000 -6.9661751 -121.63262 -2.1380949 107.5144 -2.1225984 107.70741 -7.7762203 155.09172
5042500000 -7.0707335 -124.80492 -2.1086719 104.20331 -2.093781 104.40222 -7.9146848 151.99086
5091875000 -7.172977 -127.98595 -2.080977 100.90572 -2.0664055 101.10866 -8.0651159 148.92741
5141250000 -7.2801056 -131.19679 -2.0533583 97.61866 -2.0387449 97.824234 -8.2174101 145.83766
5190625000 -7.3941069 -134.35103 -2.0250266 94.328812 -2.0113735 94.53569 -8.3643541 142.74902
5240000000 -7.5067153 -137.5103 -1.9982669 91.037178 -1.9857227 91.251549 -8.5198641 139.72607
5289375000 -7.624105 -140.70543 -1.9736012 87.764076 -1.9604179 87.978134 -8.6804218 136.68307
5338750000 -7.7483125 -143.85251 -1.9484316 84.487808 -1.9342365 84.708763 -8.8399105 133.61971
5388125000 -7.8768296 -146.98686 -1.9243628 81.2146 -1.9100223 81.436417 -9.0011711 130.60349
5437500000 -8.0049734 -150.14977 -1.9006946 77.947174 -1.8864605 78.173492 -9.1739597 127.61594
5486875000 -8.1416245 -153.29706 -1.8775296 74.687881 -1.8621631 74.91909 -9.3462267 124.58361
5536250000 -8.2854156 -156.40302 -1.854293 71.424812 -1.8388606 71.655357 -9.517684 121.58114
5585625000 -8.4278774 -159.53996 -1.8333418 68.169388 -1.8166943 68.397102 -9.6979256 118.62078
5635000000 -8.5764456 -162.68416 -1.8116902 64.918221 -1.7945898 65.14386 -9.8847017 115.64356
5684375000 -8.7361736 -165.76407 -1.7897819 61.667763 -1.7730063 61.892326 -10.070531 112.64066
5733750000 -8.8965607 -168.88187 -1.7694837 58.41518 -1.7528137 58.646423 -10.26303 109.71047
5783125000 -9.0594082 -172.00945 -1.7499295 55.178242 -1.7331655 55.408279 -10.463099 106.78464
5832500000 -9.2348938 -175.0782 -1.7286947 51.935322 -1.7126087 52.170746 -10.669421 103.81889
5881875000 -9.4173365 -178.14746 -1.7091224 48.696381 -1.6936381 48.932198 -10.875845 100.89047
5931250000 -9.5988016 178.73697 -1.6906986 45.460011 -1.6752299 45.696621 -11.092338 98.019539
5980625000 -9.7932291 175.66013 -1.6718352 42.228176 -1.657003 42.467175 -11.315521 95.100929
6030000000 -9.9978619 172.63396 -1.6537082 38.994263 -1.6397402 39.234299 -11.544022 92.176956
6079375000 -10.204128 169.55116 -1.6378224 35.763382 -1.6227652 36.007229 -11.776429 89.327385
6128750000 -10.419126 166.47838 -1.6204736 32.541729 -1.6061413 32.785244 -12.023647 86.488365
6178125000 -10.649957 163.48882 -1.6044613 29.317894 -1.5897635 29.560062 -12.27739 83.595177
6227500000 -10.885368 160.45862 -1.5894237 26.095953 -1.5740511 26.341768 -12.533313 80.77002
6276875000 -11.126483 157.40451 -1.5740869 22.881838 -1.5585712 23.122248 -12.799829 77.997475
6326250000 -11.38449 154.43155 -1.5594176 19.661633 -1.5433074 19.904823 -13.083284 75.158585
6375625000 -11.651885 151.46672 -1.545844 16.446417 -1.529382 16.686974 -13.367163 72.353867
6425000000 -11.92313 148.44849 -1.5320601 13.231377 -1.515981 13.472676 -13.65883 69.646484
6474375000 -12.21182 145.50096 -1.5181185 10.022385 -1.5022812 10.263004 -13.975025 66.90052
6523750000 -12.516762 142.6232 -1.505631 6.8069124 -1.488804 7.050694 -14.299624 64.126259
6573125000 -12.826349 139.66553 -1.4936179 3.5987978 -1.4763185 3.8407273 -14.624084 61.479115
6622500000 -13.150633 136.74318 -1.4812728 0.39527738 -1.4651656 0.63542032 -14.975196 58.844757
6671875000 -13.496796 133.94145 -1.4697293 -2.8128173 -1.4538544 -2.5704827 -15.341215 56.179123
6721250000 -13.855727 131.10669 -1.4591447 -6.0191288 -1.4436213 -5.7733712 -15.711327 53.58419
6770625000 -14.225371 128.23639 -1.448655 -9.2204771 -1.4341756 -8.9738474 -16.101398 51.142231
6820000000 -14.61714 125.52528 -1.4394681 -12.420509 -1.4246328 -12.169656 -16.521914 48.620045
6869375000 -15.032597 122.85795 -1.430419 -15.617966 -1.415701 -15.368632 -16.952023 46.157742
6918750000 -15.463245 120.10819 -1.4228572 -18.813921 -1.4074868 -18.564316 -17.394007 43.872639
6968125000 -15.92002 117.48781 -1.4157144 -22.007713 -1.3996185 -21.757246 -17.882198 41.634552
7017500000 -16.40329 115.04198 -1.4091851 -25.201529 -1.3929938 -24.952122 -18.383074 39.405453
7066875000 -16.909069 112.53321 -1.4026861 -28.388205 -1.3872656 -28.141241 -18.899483 37.420208
7116250000 -17.448704 110.09796 -1.3966299 -31.5777 -1.3817449 -31.327984 -19.453362 35.615593
7165625000 -18.027037 107.93886 -1.3914614 -34.765377 -1.3759434 -34.512157 -20.053194 33.896984
7215000000 -18.637112 105.86868 -1.3871698 -37.948727 -1.371449 -37.69503 -20.667271 32.418854
7264375000 -19.298672 103.79731 -1.3829814 -41.131279 -1.3673528 -40.875584 -21.310831 31.33674
7313750000 -19.999598 102.09556 -1.3796645 -44.310841 -1.3636771 -44.056732 -22.014578 30.499878
7363125000 -20.758726 100.80265 -1.3765723 -47.493027 -1.3610785 -47.236378 -22.747585 30.113358
7412500000 -21.584675 99.647697 -1.3747997 -50.66967 -1.3593098 -50.412964 -23.478682 30.293543
7461875000 -22.470898 99.054611 -1.3725607 -53.841576 -1.3577819 -53.585316 -24.254866 31.23893
7511250000 -23.416355 99.262756 -1.3713636 -57.008698 -1.3567991 -56.75692 -25.031086 32.810757
7560625000 -24.411148 100.26995 -1.3706174 -60.174065 -1.3564018 -59.922424 -25.767056 35.251568
7610000000 -25.479137 102.36762 -1.3712146 -63.332581 -1.3563547 -63.087582 -26.428379 38.530823
7659375000 -26.488111 105.95467 -1.3720146 -66.490341 -1.3574826 -66.247398 -27.01548 42.54911
7708750000 -27.383013 110.69562 -1.3733612 -69.647629 -1.3593965 -69.402725 -27.479181 47.158245
7758125000 -28.159601 116.62798 -1.3755612 -72.799583 -1.3609461 -72.552956 -27.780058 52.171398
7807500000 -28.756895 123.5507 -1.3784686 -75.951202 -1.3636153 -75.697662 -27.95549 57.398426
7856875000 -29.12742 130.79712 -1.3816476 -79.096237 -1.366924 -78.839737 -27.96826 62.749481
7906250000 -29.321953 138.18834 -1.3858399 -82.234848 -1.3705016 -81.979187 -27.809952 67.832184
7955625000 -29.298298 145.838 -1.3900112 -85.372635 -1.3737909 -85.114769 -27.544434 72.670944
8005000000 -29.071106 153.24612 -1.3951921 -88.504662 -1.3784487 -88.245605 -27.130711 76.900078
8054375000 -28.657053 160.04268 -1.4001613 -91.633652 -1.383283 -91.37233 -26.592598 80.469872
8103750000 -28.068111 166.19479 -1.4063293 -94.756996 -1.3884517 -94.496017 -25.972811 83.309814
8153125000 -27.281324 171.34868 -1.4120898 -97.876732 -1.3948169 -97.60968 -25.327671 85.249588
8202500000 -26.432135 175.10725 -1.418491 -100.99022 -1.4004031 -100.72478 -24.654255 86.298782
8251875000 -25.57193 177.67337 -1.425137 -104.09855 -1.4062735 -103.83682 -23.960606 86.589027
8301250000 -24.711727 178.98045 -1.4321657 -107.20306 -1.4136252 -106.94315 -23.331131 86.376175
8350625000 -23.88809 179.33199 -1.4389577 -110.29898 -1.4200087 -110.04433 -22.729492 85.583588
8400000000 -23.174181 179.21544 -1.4456404 -113.39527 -1.4267306 -113.14247 -22.150862 84.224525
8449375000 -22.50234 178.52948 -1.452359 -116.48638 -1.4335124 -116.23678 -21.620939 82.721779
8498750000 -21.890951 177.43216 -1.4591757 -119.57219 -1.4415973 -119.32449 -21.127258 80.904419
8548125000 -21.341911 176.14355 -1.465719 -122.65398 -1.4489262 -122.40627 -20.668678 78.746933
8597500000 -20.846546 174.73157 -1.4731776 -125.7334 -1.4565239 -125.48421 -20.230696 76.456329
8646875000 -20.385952 173.02325 -1.4797215 -128.80769 -1.4636077 -128.55696 -19.838758 74.050529
8696250000 -19.966738 171.26675 -1.4868951 -131.87701 -1.4703362 -131.6295 -19.467201 71.474739
8745625000 -19.58396 169.53534 -1.4938868 -134.94292 -1.4769071 -134.69112 -19.116133 68.715141
8795000000 -19.234715 167.64503 -1.500741 -138.00507 -1.484549 -137.75578 -18.799673 65.998886
8844375000 -18.90436 165.66978 -1.5070977 -141.06204 -1.4916722 -140.81487 -18.499203 63.074402
8893750000 -18.608698 163.80107 -1.5133742 -144.11845 -1.4986528 -143.87117 -18.2178 60.037125
8943125000 -18.343449 161.84015 -1.5205505 -147.17099 -1.5053265 -146.92676 -17.95628 56.982197
8992500000 -18.08931 159.81294 -1.5274881 -150.21965 -1.5122529 -149.97353 -17.717537 53.864918
9041875000 -17.859631 157.86211 -1.5340424 -153.26706 -1.5186667 -153.01849 -17.489794 50.643703
9091250000 -17.655674 155.95346 -1.5406741 -156.31477 -1.5251248 -156.06409 -17.280191 47.36702
9140625000 -17.459867 153.89729 -1.5467633 -159.35762 -1.5318446 -159.10991 -17.087484 44.065285
9190000000 -17.279835 151.9586 -1.5528445 -162.39977 -1.5384504 -162.15128 -16.90451 40.657536
9239375000 -17.118742 150.10722 -1.5581297 -165.44223 -1.5447594 -165.19295 -16.740709 37.165783
9288750000 -16.969715 148.14182 -1.5638653 -168.48621 -1.5513599 -168.23392 -16.584173 33.684265
9338125000 -16.820847 146.19858 -1.5690411 -171.52402 -1.556707 -171.2688 -16.436609 30.135035
9387500000 -16.69697 144.4211 -1.574612 -174.56546 -1.5617299 -174.30571 -16.308914 26.502489
9436875000 -16.585901 142.5614 -1.5799754 -177.60036 -1.5681337 -177.34366 -16.185524 22.833788
9486250000 -16.465899 140.67397 -1.5850048 179.36438 -1.5739739 179.62663 -16.068384 19.171633
9535625000 -16.361422 138.96945 -1.589833 176.32672 -1.5793868 176.59164 -15.968005 15.406993
9585000000 -16.272688 137.25258 -1.5946825 173.29341 -1.584916 173.56097 -15.872932 11.569261
9634375000 -16.179003 135.45113 -1.5998782 170.26083 -1.5901631 170.53265 -15.778649 7.760921
9683750000 -16.089472 133.81331 -1.6050814 167.22824 -1.5952729 167.50482 -15.703603 3.8999527
9733125000 -16.015198 132.22455 -1.610406 164.19795 -1.6006973 164.47345 -15.632047 -0.096214198
9782500000 -15.938655 130.55652 -1.616431 161.16875 -1.6060873 161.44351 -15.557631 -4.0601692
9831875000 -15.863056 128.98392 -1.6212677 158.13852 -1.6119843 158.4086 -15.498278 -8.0391006
9881250000 -15.797831 127.52544 -1.6275265 155.10612 -1.6182932 155.37527 -15.449232 -12.181484
9930625000 -15.727557 126.00171 -1.6328197 152.07532 -1.6241115 152.34526 -15.392014 -16.288507
9980000000 -15.652505 124.49678 -1.6381354 149.04234 -1.6294211 149.3194 -15.344375 -20.403154
10029375000 -15.590204 123.11894 -1.6432379 146.00497 -1.635276 146.28621 -15.315765 -24.643404
10078750000 -15.521727 121.71292 -1.6489236 142.97411 -1.6419997 143.25807 -15.271793 -28.935066
10128125000 -15.447499 120.27647 -1.6551784 139.94209 -1.648127 140.22934 -15.237254 -33.169529
10177500000 -15.379081 118.95322 -1.6610001 136.91006 -1.6545963 137.20042 -15.214622 -37.52198
10226875000 -15.305326 117.65778 -1.6668389 133.87502 -1.6612858 134.17281 -15.182588 -41.966064
10276250000 -15.227888 116.29782 -1.6742463 130.8425 -1.6673706 131.14844 -15.150813 -46.316696
10325625000 -15.151129 115.02154 -1.679323 127.80945 -1.6724782 128.12033 -15.129806 -50.784084
10375000000 -15.058032 113.7771 -1.6855131 124.79406 -1.6793439 125.10522 -15.104765 -55.357262
10424375000 -14.964693 112.50995 -1.6918546 121.76501 -1.6852989 122.08769 -15.07266 -59.869019
10473750000 -14.876339 111.20315 -1.6996273 118.73554 -1.6919291 119.06318 -15.051032 -64.403969
10523125000 -14.779892 109.96716 -1.7053885 115.70586 -1.6991701 116.03519 -15.027241 -69.055328
10572500000 -14.672146 108.74452 -1.7133036 112.69341 -1.7064161 113.01749 -14.988669 -73.69976
